! P1-P3  26-Dec-22   12:54:53 
! Ref Plane: 0.000 mm
# MHZ S MA R  50
!
1.0000	  0.50074       179.88        4.999E-1      0.06          4.997E-1      -0.14         0.49991       179.84         
1.5999        0.50071       179.81        4.999E-1      -0.10         4.996E-1      -0.23         0.50007       179.79         
2.1998        0.50074       179.74        4.998E-1      -0.23         4.996E-1      -0.30         0.50022       179.72         
2.7997        0.50076       179.67        4.998E-1      -0.35         4.996E-1      -0.40         0.5002        179.65         
3.3996        0.50066       179.59        4.998E-1      -0.47         4.996E-1      -0.51         0.50018       179.57         
3.9995        0.50064       179.51        4.997E-1      -0.58         4.996E-1      -0.63         0.50018       179.50         
4.5994        0.50063       179.43        4.997E-1      -0.69         4.996E-1      -0.76         0.50016       179.41         
5.1993        0.50063       179.35        4.997E-1      -0.79         4.996E-1      -0.90         0.50014       179.34         
5.7992        0.50057       179.27        4.996E-1      -0.91         4.995E-1      -1.02         0.50014       179.26         
6.3991        0.50057       179.20        4.996E-1      -1.06         4.995E-1      -1.10         0.50012       179.18         
6.9990        0.5005        179.12        4.995E-1      -1.20         4.996E-1      -1.19         0.50013       179.10         
7.5989        0.50046       179.04        4.995E-1      -1.33         4.997E-1      -1.29         0.50013       179.03         
8.1988        0.50043       178.96        4.995E-1      -1.46         4.996E-1      -1.41         0.50007       178.95         
8.7987        0.50043       178.89        4.994E-1      -1.59         4.997E-1      -1.51         0.50007       178.87         
9.3986        0.50037       178.80        4.993E-1      -1.71         4.996E-1      -1.63         0.5001        178.79         
9.9985        0.50035       178.73        4.993E-1      -1.83         4.996E-1      -1.75         0.50009       178.72         
10.5984       0.50032       178.65        4.992E-1      -1.94         4.996E-1      -1.86         0.50007       178.64         
11.1983       0.50034       178.57        4.992E-1      -2.06         4.997E-1      -1.97         0.50007       178.56         
11.7982       0.50029       178.50        4.991E-1      -2.18         4.997E-1      -2.08         0.50004       178.48         
12.3981       0.5003        178.41        4.991E-1      -2.30         4.997E-1      -2.21         0.50001       178.40         
12.9980       0.50028       178.34        4.99E-1       -2.41         4.997E-1      -2.32         0.50001       178.33         
13.5979       0.50025       178.26        4.99E-1       -2.53         4.996E-1      -2.43         0.50001       178.25         
14.1978       0.50026       178.18        4.989E-1      -2.65         4.996E-1      -2.55         0.49997       178.17         
14.7977       0.50029       178.10        4.991E-1      -2.76         4.995E-1      -2.68         0.49995       178.09         
15.3976       0.50025       178.02        4.991E-1      -2.87         4.994E-1      -2.80         0.49994       178.02         
15.9975       0.50022       177.95        4.991E-1      -2.99         4.994E-1      -2.91         0.49992       177.94         
16.5974       0.50017       177.87        4.991E-1      -3.09         4.993E-1      -3.04         0.49992       177.86         
17.1973       0.50023       177.79        4.991E-1      -3.20         4.993E-1      -3.15         0.49994       177.78         
17.7972       0.50017       177.71        4.99E-1       -3.32         4.993E-1      -3.27         0.49993       177.70         
18.3971       0.50013       177.63        4.99E-1       -3.42         4.992E-1      -3.39         0.49991       177.63         
18.9970       0.5001        177.56        4.99E-1       -3.55         4.993E-1      -3.51         0.49994       177.54         
19.5969       0.50011       177.48        4.99E-1       -3.66         4.992E-1      -3.62         0.49995       177.47         
20.1968       0.50013       177.40        4.99E-1       -3.78         4.992E-1      -3.73         0.49989       177.39         
20.7967       0.50015       177.32        4.989E-1      -3.90         4.991E-1      -3.85         0.49995       177.31         
21.3966       0.50012       177.24        4.99E-1       -4.02         4.991E-1      -3.96         0.49986       177.23         
21.9965       0.50018       177.16        4.989E-1      -4.13         4.991E-1      -4.08         0.49988       177.16         
22.5964       0.5001        177.09        4.989E-1      -4.24         4.991E-1      -4.19         0.49987       177.08         
23.1963       0.50013       177.02        4.989E-1      -4.35         4.99E-1       -4.30         0.49987       177.00         
23.7962       0.50014       176.94        4.988E-1      -4.47         4.991E-1      -4.43         0.49984       176.92         
24.3961       0.50013       176.87        4.989E-1      -4.59         4.99E-1       -4.54         0.49982       176.85         
24.9960       0.50008       176.79        4.988E-1      -4.70         4.99E-1       -4.65         0.49983       176.77         
25.5959       0.50004       176.70        4.987E-1      -4.82         4.99E-1       -4.76         0.49986       176.69         
26.1958       0.50005       176.63        4.987E-1      -4.93         4.989E-1      -4.87         0.49981       176.61         
26.7957       0.50004       176.55        4.987E-1      -5.05         4.99E-1       -4.98         0.49989       176.53         
27.3956       0.50004       176.47        4.986E-1      -5.16         4.99E-1       -5.10         0.49985       176.46         
27.9955       0.50004       176.40        4.986E-1      -5.27         4.988E-1      -5.22         0.49985       176.38         
28.5954       0.50005       176.33        4.987E-1      -5.39         4.989E-1      -5.33         0.49981       176.30         
29.1953       0.50002       176.24        4.986E-1      -5.51         4.988E-1      -5.44         0.49984       176.22         
29.7952       0.50007       176.17        4.986E-1      -5.62         4.988E-1      -5.55         0.49983       176.15         
30.3951       0.50008       176.09        4.986E-1      -5.73         4.987E-1      -5.66         0.49986       176.07         
30.9950       0.5001        176.01        4.986E-1      -5.85         4.987E-1      -5.78         0.49984       175.99         
31.5949       0.50009       175.93        4.985E-1      -5.96         4.987E-1      -5.89         0.49984       175.91         
32.1948       0.50012       175.85        4.986E-1      -6.08         4.986E-1      -6.01         0.49982       175.83         
32.7947       0.50006       175.77        4.986E-1      -6.19         4.986E-1      -6.11         0.49984       175.76         
33.3946       0.50007       175.69        4.985E-1      -6.31         4.985E-1      -6.22         0.49982       175.68         
33.9945       0.50013       175.63        4.985E-1      -6.42         4.986E-1      -6.33         0.49985       175.61         
34.5944       0.50009       175.54        4.985E-1      -6.53         4.986E-1      -6.45         0.49981       175.53         
35.1943       0.5001        175.47        4.984E-1      -6.65         4.986E-1      -6.55         0.49985       175.45         
35.7942       0.50012       175.39        4.984E-1      -6.76         4.985E-1      -6.66         0.49984       175.37         
36.3941       0.50013       175.31        4.984E-1      -6.87         4.985E-1      -6.77         0.49984       175.29         
36.9940       0.50009       175.23        4.985E-1      -6.99         4.984E-1      -6.89         0.4998        175.22         
37.5939       0.50013       175.16        4.984E-1      -7.10         4.985E-1      -7.00         0.49982       175.14         
38.1938       0.50014       175.08        4.984E-1      -7.21         4.985E-1      -7.11         0.49991       175.06         
38.7937       0.50012       175.00        4.984E-1      -7.33         4.984E-1      -7.22         0.49988       174.99         
39.3936       0.50017       174.93        4.984E-1      -7.43         4.984E-1      -7.33         0.49984       174.91         
39.9935       0.50018       174.85        4.984E-1      -7.54         4.983E-1      -7.44         0.49989       174.83         
40.5934       0.50016       174.78        4.983E-1      -7.66         4.983E-1      -7.55         0.49989       174.76         
41.1933       0.50017       174.70        4.983E-1      -7.77         4.983E-1      -7.66         0.49987       174.67         
41.7932       0.50014       174.62        4.983E-1      -7.88         4.983E-1      -7.76         0.49989       174.60         
42.3931       0.50015       174.55        4.983E-1      -7.99         4.983E-1      -7.88         0.49993       174.52         
42.9930       0.50017       174.47        4.982E-1      -8.10         4.983E-1      -7.99         0.49992       174.44         
43.5929       0.50012       174.40        4.982E-1      -8.21         4.982E-1      -8.10         0.49991       174.37         
44.1928       0.50011       174.32        4.982E-1      -8.33         4.981E-1      -8.21         0.4999        174.29         
44.7927       0.50015       174.24        4.981E-1      -8.45         4.982E-1      -8.32         0.49991       174.22         
45.3926       0.50017       174.16        4.981E-1      -8.56         4.982E-1      -8.42         0.4999        174.14         
45.9925       0.50018       174.09        4.981E-1      -8.67         4.981E-1      -8.53         0.4999        174.06         
46.5924       0.50017       174.01        4.981E-1      -8.78         4.981E-1      -8.64         0.49991       173.98         
47.1923       0.50019       173.94        4.978E-1      -8.79         4.983E-1      -8.87         0.49993       173.92         
47.7922       0.50019       173.86        4.976E-1      -8.84         4.984E-1      -9.02         0.49987       173.84         
48.3921       0.50021       173.78        4.976E-1      -8.92         4.984E-1      -9.17         0.49986       173.76         
48.9920       0.50019       173.70        4.975E-1      -9.01         4.988E-1      -9.33         0.49977       173.70         
49.5919       0.50024       173.62        4.959E-1      -9.44         4.984E-1      -9.06         0.4999        173.60         
50.1918       0.50027       173.55        4.979E-1      -9.46         4.98E-1       -9.28         0.49998       173.53         
50.7917       0.50023       173.47        4.979E-1      -9.55         4.979E-1      -9.39         0.50001       173.44         
51.3916       0.50028       173.39        4.979E-1      -9.67         4.978E-1      -9.51         0.49996       173.37         
51.9915       0.50023       173.31        4.979E-1      -9.78         4.979E-1      -9.63         0.49998       173.30         
52.5914       0.50024       173.23        4.979E-1      -9.88         4.978E-1      -9.74         0.50001       173.22         
53.1913       0.50025       173.15        4.978E-1      -10.00        4.977E-1      -9.85         0.49999       173.14         
53.7912       0.50023       173.08        4.978E-1      -10.11        4.977E-1      -9.96         0.50          173.07         
54.3911       0.50021       173.00        4.978E-1      -10.21        4.977E-1      -10.07        0.49997       172.99         
54.9910       0.50027       172.93        4.978E-1      -10.33        4.977E-1      -10.17        0.50003       172.92         
55.5909       0.50031       172.84        4.977E-1      -10.44        4.976E-1      -10.28        0.50002       172.84         
56.1908       0.50027       172.76        4.977E-1      -10.55        4.976E-1      -10.41        0.50005       172.76         
56.7907       0.50032       172.68        4.977E-1      -10.66        4.976E-1      -10.53        0.50005       172.68         
57.3906       0.50038       172.60        4.976E-1      -10.76        4.976E-1      -10.64        0.50001       172.60         
57.9905       0.50037       172.52        4.977E-1      -10.88        4.975E-1      -10.75        0.50007       172.53         
58.5904       0.50037       172.44        4.977E-1      -10.99        4.975E-1      -10.86        0.50006       172.45         
59.1903       0.50036       172.37        4.976E-1      -11.11        4.974E-1      -10.96        0.50005       172.37         
59.7902       0.50036       172.29        4.976E-1      -11.21        4.974E-1      -11.07        0.50006       172.29         
60.3901       0.50037       172.22        4.976E-1      -11.33        4.974E-1      -11.19        0.50007       172.21         
60.9900       0.5004        172.15        4.975E-1      -11.43        4.973E-1      -11.29        0.50012       172.14         
61.5899       0.5004        172.07        4.975E-1      -11.55        4.974E-1      -11.40        0.50016       172.06         
62.1898       0.50045       171.99        4.974E-1      -11.67        4.973E-1      -11.52        0.50015       171.98         
62.7897       0.50045       171.92        4.974E-1      -11.77        4.972E-1      -11.63        0.5001        171.90         
63.3896       0.50047       171.84        4.975E-1      -11.88        4.972E-1      -11.74        0.50013       171.83         
63.9895       0.5005        171.76        4.975E-1      -11.98        4.972E-1      -11.85        0.50015       171.75         
64.5894       0.50053       171.68        4.974E-1      -12.10        4.972E-1      -11.97        0.50014       171.67         
65.1893       0.50053       171.61        4.974E-1      -12.20        4.971E-1      -12.08        0.50017       171.60         
65.7892       0.50047       171.52        4.973E-1      -12.31        4.971E-1      -12.19        0.50017       171.53         
66.3891       0.50053       171.45        4.973E-1      -12.42        4.97E-1       -12.30        0.50017       171.45         
66.9890       0.50051       171.36        4.973E-1      -12.52        4.969E-1      -12.42        0.50018       171.37         
67.5889       0.50052       171.29        4.972E-1      -12.64        4.97E-1       -12.53        0.50019       171.29         
68.1888       0.50053       171.21        4.972E-1      -12.74        4.969E-1      -12.65        0.50015       171.22         
68.7887       0.50055       171.14        4.972E-1      -12.85        4.969E-1      -12.77        0.50019       171.14         
69.3886       0.50058       171.06        4.971E-1      -12.95        4.969E-1      -12.88        0.50019       171.06         
69.9885       0.50059       170.98        4.971E-1      -13.07        4.968E-1      -13.00        0.50019       170.99         
70.5884       0.50065       170.90        4.97E-1       -13.18        4.967E-1      -13.11        0.50025       170.91         
71.1883       0.50065       170.82        4.971E-1      -13.29        4.967E-1      -13.22        0.50023       170.83         
71.7882       0.50065       170.74        4.97E-1       -13.40        4.967E-1      -13.33        0.50021       170.75         
72.3881       0.50061       170.67        4.97E-1       -13.51        4.966E-1      -13.44        0.50024       170.67         
72.9880       0.50067       170.59        4.97E-1       -13.63        4.965E-1      -13.54        0.50022       170.59         
73.5879       0.50063       170.51        4.969E-1      -13.74        4.966E-1      -13.65        0.50023       170.51         
74.1878       0.5007        170.44        4.968E-1      -13.86        4.966E-1      -13.76        0.50028       170.44         
74.7877       0.50071       170.36        4.968E-1      -13.98        4.965E-1      -13.87        0.50024       170.36         
75.3876       0.50073       170.29        4.968E-1      -14.09        4.965E-1      -13.97        0.50025       170.29         
75.9875       0.50077       170.22        4.968E-1      -14.20        4.964E-1      -14.09        0.50029       170.21         
76.5874       0.50077       170.14        4.967E-1      -14.31        4.964E-1      -14.20        0.50028       170.13         
77.1873       0.50073       170.07        4.967E-1      -14.41        4.964E-1      -14.31        0.50027       170.06         
77.7872       0.50077       169.99        4.967E-1      -14.50        4.963E-1      -14.44        0.50031       169.98         
78.3871       0.50075       169.92        4.967E-1      -14.62        4.963E-1      -14.55        0.50033       169.90         
78.9870       0.50078       169.85        4.966E-1      -14.72        4.962E-1      -14.67        0.50036       169.82         
79.5869       0.50077       169.78        4.967E-1      -14.81        4.962E-1      -14.80        0.50036       169.75         
80.1868       0.50081       169.70        4.967E-1      -14.89        4.961E-1      -14.94        0.50037       169.67         
80.7867       0.50083       169.62        4.967E-1      -14.97        4.96E-1       -15.10        0.50038       169.60         
81.3866       0.50084       169.55        4.967E-1      -15.05        4.961E-1      -15.23        0.50038       169.52         
81.9865       0.50086       169.47        4.965E-1      -15.14        4.961E-1      -15.35        0.50043       169.44         
82.5864       0.50085       169.39        4.964E-1      -15.26        4.96E-1       -15.46        0.50043       169.37         
83.1863       0.50092       169.32        4.963E-1      -15.37        4.961E-1      -15.56        0.50042       169.29         
83.7862       0.50095       169.24        4.963E-1      -15.47        4.96E-1       -15.68        0.50043       169.22         
84.3861       0.50101       169.17        4.962E-1      -15.59        4.96E-1       -15.77        0.50047       169.13         
84.9860       0.50102       169.09        4.962E-1      -15.73        4.959E-1      -15.85        0.50047       169.06         
85.5859       0.50106       169.02        4.961E-1      -15.86        4.959E-1      -15.95        0.50051       168.98         
86.1858       0.50106       168.93        4.961E-1      -15.98        4.959E-1      -16.04        0.50047       168.90         
86.7857       0.50105       168.85        4.959E-1      -16.07        4.959E-1      -16.18        0.50053       168.83         
87.3856       0.50108       168.75        4.959E-1      -16.17        4.959E-1      -16.31        0.50054       168.76         
87.9855       0.50114       168.67        4.959E-1      -16.30        4.959E-1      -16.41        0.50052       168.68         
88.5854       0.50109       168.59        4.958E-1      -16.41        4.958E-1      -16.52        0.50056       168.60         
89.1853       0.50114       168.52        4.957E-1      -16.51        4.958E-1      -16.63        0.50054       168.53         
89.7852       0.50114       168.44        4.958E-1      -16.63        4.958E-1      -16.74        0.5005        168.46         
90.3851       0.50119       168.36        4.956E-1      -16.74        4.958E-1      -16.85        0.50055       168.38         
90.9850       0.50118       168.28        4.957E-1      -16.86        4.957E-1      -16.96        0.50056       168.31         
91.5849       0.50119       168.21        4.956E-1      -16.97        4.957E-1      -17.06        0.50055       168.23         
92.1848       0.50121       168.12        4.956E-1      -17.08        4.956E-1      -17.17        0.50056       168.15         
92.7847       0.50119       168.05        4.956E-1      -17.19        4.956E-1      -17.29        0.50057       168.09         
93.3846       0.50117       167.96        4.955E-1      -17.30        4.955E-1      -17.40        0.50059       168.01         
