! P1-P4  26-Dec-22   12:51:00 
! Ref Plane: 0.000 mm
# MHZ S MA R  50
!
1.0000        0.50071       179.86        4.999E-1      -0.04         4.997E-1      -0.16         0.49997       179.80         
1.5999        0.5007        179.78        4.999E-1      -0.23         4.996E-1      -0.28         0.50009       179.71         
2.1998        0.50067       179.71        4.998E-1      -0.38         4.995E-1      -0.38         0.50018       179.62         
2.7997        0.50057       179.63        4.998E-1      -0.54         4.995E-1      -0.51         0.50015       179.52         
3.3996        0.50054       179.55        4.997E-1      -0.67         4.995E-1      -0.65         0.50013       179.41         
3.9995        0.50047       179.48        4.997E-1      -0.81         4.995E-1      -0.80         0.5001        179.31         
4.5994        0.50044       179.39        4.996E-1      -0.95         4.995E-1      -0.96         0.50008       179.20         
5.1993        0.50041       179.31        4.996E-1      -1.08         4.995E-1      -1.12         0.50004       179.10         
5.7992        0.50038       179.23        4.996E-1      -1.22         4.995E-1      -1.27         0.50001       178.99         
6.3991        0.50036       179.16        4.995E-1      -1.39         4.994E-1      -1.38         0.50004       178.89         
6.9990        0.50028       179.09        4.995E-1      -1.56         4.994E-1      -1.50         0.50003       178.78         
7.5989        0.50024       179.01        4.994E-1      -1.72         4.995E-1      -1.63         0.50003       178.68         
8.1988        0.50021       178.93        4.994E-1      -1.87         4.995E-1      -1.76         0.50          178.58         
8.7987        0.50019       178.85        4.993E-1      -2.02         4.995E-1      -1.90         0.49994       178.47         
9.3986        0.50013       178.77        4.993E-1      -2.17         4.994E-1      -2.04         0.49997       178.37         
9.9985        0.5001        178.69        4.993E-1      -2.31         4.994E-1      -2.18         0.49996       178.27         
10.5984       0.50008       178.61        4.992E-1      -2.46         4.994E-1      -2.33         0.4999        178.16         
11.1983       0.50008       178.53        4.992E-1      -2.60         4.995E-1      -2.46         0.49989       178.06         
11.7982       0.50004       178.46        4.991E-1      -2.75         4.995E-1      -2.61         0.49989       177.95         
12.3981       0.50          178.38        4.991E-1      -2.90         4.995E-1      -2.75         0.49982       177.85         
12.9980       0.50004       178.30        4.99E-1       -3.04         4.995E-1      -2.88         0.49983       177.74         
13.5979       0.49996       178.23        4.99E-1       -3.18         4.995E-1      -3.03         0.49983       177.64         
14.1978       0.49997       178.14        4.989E-1      -3.32         4.994E-1      -3.17         0.49977       177.54         
14.7977       0.49999       178.06        4.991E-1      -3.46         4.993E-1      -3.32         0.49971       177.43         
15.3976       0.49996       177.99        4.991E-1      -3.60         4.993E-1      -3.47         0.49973       177.32         
15.9975       0.49994       177.92        4.99E-1       -3.74         4.993E-1      -3.61         0.49968       177.22         
16.5974       0.49989       177.84        4.991E-1      -3.87         4.992E-1      -3.76         0.49969       177.12         
17.1973       0.49988       177.75        4.99E-1       -4.01         4.992E-1      -3.91         0.49966       177.02         
17.7972       0.49992       177.67        4.99E-1       -4.15         4.992E-1      -4.06         0.4996        176.91         
18.3971       0.49988       177.60        4.99E-1       -4.29         4.992E-1      -4.19         0.49961       176.81         
18.9970       0.49984       177.53        4.99E-1       -4.43         4.992E-1      -4.33         0.49966       176.70         
19.5969       0.49984       177.45        4.99E-1       -4.58         4.992E-1      -4.47         0.4996        176.59         
20.1968       0.49985       177.37        4.989E-1      -4.71         4.991E-1      -4.61         0.49958       176.49         
20.7967       0.49985       177.29        4.989E-1      -4.86         4.991E-1      -4.76         0.49958       176.39         
21.3966       0.49983       177.21        4.989E-1      -5.00         4.991E-1      -4.90         0.49949       176.28         
21.9965       0.49988       177.13        4.988E-1      -5.14         4.99E-1       -5.04         0.49949       176.18         
22.5964       0.49979       177.06        4.989E-1      -5.28         4.99E-1       -5.18         0.49946       176.08         
23.1963       0.49979       176.98        4.989E-1      -5.42         4.99E-1       -5.32         0.49947       175.97         
23.7962       0.49982       176.90        4.989E-1      -5.56         4.99E-1       -5.47         0.49939       175.87         
24.3961       0.49976       176.83        4.989E-1      -5.70         4.99E-1       -5.61         0.49939       175.77         
24.9960       0.49979       176.75        4.989E-1      -5.84         4.991E-1      -5.75         0.49937       175.66         
25.5959       0.49975       176.68        4.988E-1      -5.98         4.99E-1       -5.88         0.49934       175.55         
26.1958       0.49974       176.59        4.988E-1      -6.13         4.99E-1       -6.02         0.49934       175.45         
26.7957       0.49972       176.52        4.988E-1      -6.27         4.99E-1       -6.15         0.49935       175.35         
27.3956       0.49974       176.44        4.988E-1      -6.41         4.99E-1       -6.30         0.49935       175.24         
27.9955       0.49969       176.36        4.987E-1      -6.54         4.988E-1      -6.44         0.49931       175.14         
28.5954       0.49969       176.29        4.988E-1      -6.69         4.99E-1       -6.58         0.49929       175.04         
29.1953       0.49971       176.21        4.988E-1      -6.83         4.989E-1      -6.72         0.4993        174.93         
29.7952       0.49974       176.14        4.988E-1      -6.97         4.989E-1      -6.86         0.49925       174.83         
30.3951       0.49972       176.05        4.987E-1      -7.11         4.988E-1      -6.99         0.49925       174.72         
30.9950       0.49975       175.98        4.987E-1      -7.25         4.989E-1      -7.13         0.49922       174.63         
31.5949       0.49975       175.90        4.987E-1      -7.39         4.988E-1      -7.27         0.49919       174.52         
32.1948       0.49977       175.81        4.987E-1      -7.53         4.988E-1      -7.41         0.49912       174.42         
32.7947       0.49966       175.73        4.987E-1      -7.68         4.988E-1      -7.55         0.49919       174.31         
33.3946       0.49973       175.66        4.987E-1      -7.82         4.987E-1      -7.68         0.49912       174.21         
33.9945       0.49972       175.58        4.987E-1      -7.95         4.988E-1      -7.82         0.4991        174.10         
34.5944       0.49972       175.50        4.987E-1      -8.09         4.988E-1      -7.96         0.49905       174.01         
35.1943       0.49973       175.44        4.987E-1      -8.23         4.988E-1      -8.09         0.49909       173.91         
35.7942       0.49972       175.35        4.986E-1      -8.37         4.988E-1      -8.23         0.49906       173.80         
36.3941       0.49979       175.27        4.987E-1      -8.51         4.988E-1      -8.37         0.49902       173.69         
36.9940       0.49972       175.20        4.987E-1      -8.65         4.988E-1      -8.51         0.49902       173.59         
37.5939       0.49973       175.13        4.987E-1      -8.78         4.988E-1      -8.65         0.49905       173.49         
38.1938       0.49976       175.04        4.987E-1      -8.92         4.988E-1      -8.78         0.49903       173.38         
38.7937       0.49977       174.96        4.987E-1      -9.07         4.987E-1      -8.92         0.49895       173.28         
39.3936       0.49981       174.89        4.987E-1      -9.20         4.987E-1      -9.05         0.49896       173.18         
39.9935       0.4998        174.81        4.987E-1      -9.34         4.987E-1      -9.19         0.49898       173.07         
40.5934       0.49975       174.74        4.987E-1      -9.48         4.987E-1      -9.33         0.49893       172.97         
41.1933       0.49979       174.66        4.987E-1      -9.62         4.987E-1      -9.46         0.49895       172.86         
41.7932       0.49979       174.59        4.987E-1      -9.75         4.987E-1      -9.59         0.49891       172.76         
42.3931       0.49976       174.51        4.987E-1      -9.89         4.987E-1      -9.73         0.49887       172.66         
42.9930       0.49982       174.43        4.987E-1      -10.03        4.987E-1      -9.86         0.49886       172.56         
43.5929       0.49976       174.36        4.987E-1      -10.17        4.987E-1      -10.01        0.4989        172.46         
44.1928       0.49976       174.27        4.986E-1      -10.31        4.987E-1      -10.14        0.49883       172.35         
44.7927       0.49976       174.20        4.986E-1      -10.44        4.987E-1      -10.27        0.49878       172.25         
45.3926       0.49976       174.12        4.987E-1      -10.59        4.987E-1      -10.41        0.49873       172.14         
45.9925       0.49975       174.05        4.987E-1      -10.72        4.986E-1      -10.54        0.49873       172.04         
46.5924       0.49981       173.97        4.987E-1      -10.86        4.986E-1      -10.67        0.49869       171.94         
47.1923       0.49982       173.90        4.984E-1      -10.92        4.988E-1      -10.90        0.49868       171.84         
47.7922       0.49981       173.82        4.983E-1      -11.02        4.989E-1      -11.07        0.49863       171.74         
48.3921       0.49981       173.74        4.983E-1      -11.12        4.989E-1      -11.24        0.49859       171.64         
48.9920       0.49983       173.66        4.983E-1      -11.25        4.993E-1      -11.41        0.49847       171.55         
49.5919       0.49985       173.58        4.969E-1      -11.70        4.987E-1      -11.29        0.4986        171.43         
50.1918       0.49983       173.50        4.986E-1      -11.70        4.986E-1      -11.47        0.49863       171.32         
50.7917       0.49983       173.43        4.986E-1      -11.82        4.986E-1      -11.61        0.49861       171.22         
51.3916       0.49989       173.35        4.986E-1      -11.96        4.985E-1      -11.75        0.49857       171.12         
51.9915       0.49983       173.27        4.986E-1      -12.10        4.986E-1      -11.89        0.49853       171.02         
52.5914       0.49982       173.19        4.987E-1      -12.23        4.985E-1      -12.03        0.49848       170.91         
53.1913       0.49982       173.11        4.986E-1      -12.37        4.985E-1      -12.17        0.49847       170.81         
53.7912       0.49982       173.04        4.986E-1      -12.50        4.985E-1      -12.30        0.49845       170.71         
54.3911       0.49981       172.96        4.986E-1      -12.63        4.985E-1      -12.44        0.4984        170.61         
54.9910       0.49988       172.88        4.986E-1      -12.78        4.985E-1      -12.58        0.49839       170.51         
55.5909       0.49986       172.80        4.986E-1      -12.91        4.985E-1      -12.71        0.49838       170.40         
56.1908       0.49986       172.72        4.986E-1      -13.05        4.985E-1      -12.86        0.49838       170.29         
56.7907       0.49988       172.64        4.986E-1      -13.18        4.985E-1      -13.01        0.49834       170.19         
57.3906       0.49995       172.56        4.986E-1      -13.32        4.985E-1      -13.15        0.49828       170.08         
57.9905       0.49993       172.48        4.986E-1      -13.46        4.984E-1      -13.27        0.49827       169.99         
58.5904       0.49992       172.40        4.987E-1      -13.59        4.985E-1      -13.42        0.49827       169.88         
59.1903       0.49991       172.33        4.986E-1      -13.73        4.984E-1      -13.55        0.49824       169.78         
59.7902       0.49996       172.25        4.987E-1      -13.87        4.984E-1      -13.68        0.4982        169.68         
60.3901       0.49993       172.18        4.987E-1      -14.01        4.985E-1      -13.82        0.49819       169.57         
60.9900       0.49999       172.10        4.987E-1      -14.15        4.984E-1      -13.96        0.49815       169.46         
61.5899       0.49999       172.03        4.987E-1      -14.29        4.985E-1      -14.10        0.49816       169.36         
62.1898       0.49999       171.95        4.986E-1      -14.43        4.984E-1      -14.23        0.49815       169.25         
62.7897       0.50          171.87        4.986E-1      -14.56        4.984E-1      -14.37        0.49812       169.15         
63.3896       0.50002       171.80        4.987E-1      -14.69        4.984E-1      -14.51        0.49806       169.05         
63.9895       0.50006       171.72        4.987E-1      -14.83        4.984E-1      -14.64        0.49805       168.95         
64.5894       0.5001        171.64        4.987E-1      -14.96        4.984E-1      -14.79        0.49802       168.84         
65.1893       0.50009       171.56        4.986E-1      -15.10        4.983E-1      -14.93        0.498         168.74         
65.7892       0.50002       171.47        4.986E-1      -15.24        4.985E-1      -15.07        0.49795       168.64         
66.3891       0.50003       171.41        4.986E-1      -15.37        4.983E-1      -15.21        0.49791       168.53         
66.9890       0.50004       171.32        4.987E-1      -15.50        4.983E-1      -15.36        0.49793       168.43         
67.5889       0.50008       171.24        4.986E-1      -15.63        4.984E-1      -15.50        0.49787       168.33         
68.1888       0.50006       171.16        4.987E-1      -15.77        4.983E-1      -15.64        0.49782       168.22         
68.7887       0.50008       171.08        4.986E-1      -15.90        4.983E-1      -15.78        0.4978        168.12         
69.3886       0.50015       171.01        4.986E-1      -16.03        4.983E-1      -15.92        0.49778       168.01         
69.9885       0.50013       170.93        4.986E-1      -16.17        4.983E-1      -16.07        0.49776       167.91         
70.5884       0.50019       170.85        4.986E-1      -16.31        4.982E-1      -16.20        0.49773       167.80         
71.1883       0.50019       170.77        4.986E-1      -16.45        4.983E-1      -16.34        0.49768       167.70         
71.7882       0.50018       170.70        4.986E-1      -16.59        4.983E-1      -16.48        0.49761       167.59         
72.3881       0.50015       170.62        4.986E-1      -16.72        4.983E-1      -16.62        0.49761       167.49         
72.9880       0.50019       170.54        4.987E-1      -16.87        4.983E-1      -16.74        0.49758       167.38         
73.5879       0.50016       170.46        4.986E-1      -17.01        4.983E-1      -16.89        0.49752       167.28         
74.1878       0.50024       170.39        4.985E-1      -17.15        4.983E-1      -17.01        0.49753       167.18         
74.7877       0.50026       170.32        4.986E-1      -17.29        4.983E-1      -17.15        0.49751       167.07         
75.3876       0.50024       170.24        4.986E-1      -17.43        4.983E-1      -17.28        0.49746       166.97         
75.9875       0.50031       170.16        4.986E-1      -17.57        4.983E-1      -17.42        0.49743       166.87         
76.5874       0.50029       170.09        4.986E-1      -17.69        4.983E-1      -17.56        0.49739       166.76         
77.1873       0.50026       170.02        4.986E-1      -17.82        4.983E-1      -17.71        0.49735       166.66         
77.7872       0.50033       169.94        4.986E-1      -17.95        4.983E-1      -17.84        0.49741       166.56         
78.3871       0.50026       169.86        4.986E-1      -18.09        4.982E-1      -17.98        0.49732       166.45         
78.9870       0.50032       169.80        4.986E-1      -18.21        4.982E-1      -18.13        0.4973        166.35         
79.5869       0.50029       169.72        4.986E-1      -18.34        4.982E-1      -18.29        0.49729       166.25         
80.1868       0.50032       169.65        4.987E-1      -18.45        4.982E-1      -18.46        0.49723       166.15         
80.7867       0.50036       169.57        4.987E-1      -18.56        4.982E-1      -18.63        0.49721       166.04         
81.3866       0.50034       169.49        4.986E-1      -18.67        4.982E-1      -18.78        0.49716       165.94         
81.9865       0.50041       169.41        4.985E-1      -18.80        4.982E-1      -18.92        0.49715       165.84         
82.5864       0.50041       169.33        4.986E-1      -18.94        4.983E-1      -19.04        0.49713       165.73         
83.1863       0.50049       169.26        4.985E-1      -19.08        4.983E-1      -19.18        0.49712       165.63         
83.7862       0.50049       169.18        4.986E-1      -19.21        4.983E-1      -19.32        0.49712       165.53         
84.3861       0.5005        169.11        4.985E-1      -19.35        4.983E-1      -19.44        0.49707       165.42         
84.9860       0.50049       169.03        4.985E-1      -19.51        4.984E-1      -19.57        0.49702       165.32         
85.5859       0.50055       168.95        4.985E-1      -19.66        4.983E-1      -19.70        0.49698       165.22         
86.1858       0.50052       168.87        4.985E-1      -19.81        4.984E-1      -19.83        0.49696       165.11         
86.7857       0.50055       168.78        4.984E-1      -19.94        4.984E-1      -19.97        0.49693       165.01         
87.3856       0.50054       168.69        4.984E-1      -20.07        4.984E-1      -20.11        0.4969        164.91         
87.9855       0.50061       168.62        4.984E-1      -20.21        4.984E-1      -20.24        0.49685       164.81         
88.5854       0.50058       168.54        4.984E-1      -20.35        4.984E-1      -20.38        0.49679       164.71         
89.1853       0.50062       168.46        4.984E-1      -20.49        4.984E-1      -20.51        0.49677       164.60         
89.7852       0.50063       168.39        4.985E-1      -20.63        4.984E-1      -20.65        0.49675       164.51         
90.3851       0.50066       168.31        4.983E-1      -20.76        4.984E-1      -20.78        0.49672       164.40         
90.9850       0.50066       168.23        4.984E-1      -20.90        4.985E-1      -20.93        0.49668       164.30         
91.5849       0.50068       168.16        4.984E-1      -21.04        4.984E-1      -21.06        0.49664       164.20         
92.1848       0.50066       168.07        4.984E-1      -21.19        4.984E-1      -21.19        0.49658       164.09         
92.7847       0.5007        168.01        4.985E-1      -21.31        4.984E-1      -21.34        0.49657       164.00         
93.3846       0.50064       167.92        4.984E-1      -21.45        4.984E-1      -21.46        0.49653       163.90         
