! P2-P3  26-Dec-22   13:03:16 
! Ref Plane: 0.000 mm
# MHZ S MA R  50
!
1.0000        0.5007        179.75        5.00E-1       -0.03         4.997E-1      -0.24         0.49995       179.82         
1.5999        0.50059       179.64        4.999E-1      -0.21         4.996E-1      -0.37         0.50013       179.77         
2.1998        0.50047       179.54        4.997E-1      -0.37         4.994E-1      -0.47         0.50019       179.71         
2.7997        0.50039       179.43        4.997E-1      -0.52         4.994E-1      -0.60         0.5002        179.62         
3.3996        0.50028       179.31        4.996E-1      -0.66         4.994E-1      -0.74         0.50019       179.56         
3.9995        0.50015       179.20        4.995E-1      -0.80         4.994E-1      -0.90         0.50017       179.48         
4.5994        0.50007       179.09        4.995E-1      -0.94         4.994E-1      -1.06         0.50014       179.39         
5.1993        0.50001       178.97        4.995E-1      -1.07         4.993E-1      -1.22         0.50012       179.32         
5.7992        0.49994       178.87        4.994E-1      -1.23         4.993E-1      -1.36         0.50008       179.23         
6.3991        0.4999        178.76        4.994E-1      -1.41         4.993E-1      -1.47         0.50011       179.16         
6.9990        0.49985       178.65        4.993E-1      -1.57         4.993E-1      -1.59         0.50008       179.08         
7.5989        0.49975       178.54        4.993E-1      -1.74         4.994E-1      -1.72         0.50007       179.01         
8.1988        0.49967       178.42        4.992E-1      -1.90         4.994E-1      -1.86         0.50          178.93         
8.7987        0.49965       178.31        4.991E-1      -2.05         4.994E-1      -2.00         0.50001       178.86         
9.3986        0.49963       178.20        4.991E-1      -2.20         4.994E-1      -2.15         0.50006       178.78         
9.9985        0.49951       178.09        4.99E-1       -2.34         4.994E-1      -2.29         0.50003       178.70         
10.5984       0.49951       177.98        4.989E-1      -2.50         4.994E-1      -2.44         0.50          178.62         
11.1983       0.49947       177.87        4.989E-1      -2.64         4.994E-1      -2.58         0.49998       178.54         
11.7982       0.4994        177.76        4.987E-1      -2.79         4.995E-1      -2.73         0.49999       178.46         
12.3981       0.49938       177.65        4.987E-1      -2.94         4.995E-1      -2.87         0.49995       178.39         
12.9980       0.49934       177.54        4.987E-1      -3.08         4.994E-1      -3.01         0.49993       178.31         
13.5979       0.49935       177.43        4.986E-1      -3.22         4.994E-1      -3.16         0.49988       178.23         
14.1978       0.4993        177.32        4.986E-1      -3.37         4.993E-1      -3.30         0.49987       178.15         
14.7977       0.49924       177.20        4.987E-1      -3.52         4.992E-1      -3.45         0.49983       178.07         
15.3976       0.49922       177.09        4.988E-1      -3.66         4.991E-1      -3.60         0.49986       178.00         
15.9975       0.49921       176.99        4.988E-1      -3.79         4.991E-1      -3.75         0.49984       177.92         
16.5974       0.49912       176.87        4.988E-1      -3.94         4.99E-1       -3.91         0.49982       177.84         
17.1973       0.49913       176.76        4.988E-1      -4.08         4.99E-1       -4.05         0.49985       177.77         
17.7972       0.49905       176.66        4.987E-1      -4.21         4.989E-1      -4.21         0.49981       177.69         
18.3971       0.49905       176.54        4.988E-1      -4.36         4.989E-1      -4.34         0.49981       177.61         
18.9970       0.49897       176.43        4.987E-1      -4.51         4.989E-1      -4.49         0.49981       177.52         
19.5969       0.49894       176.32        4.987E-1      -4.66         4.989E-1      -4.63         0.49981       177.45         
20.1968       0.49902       176.21        4.987E-1      -4.80         4.988E-1      -4.77         0.49977       177.37         
20.7967       0.49898       176.10        4.987E-1      -4.94         4.988E-1      -4.92         0.49983       177.30         
21.3966       0.49896       175.99        4.987E-1      -5.09         4.988E-1      -5.06         0.49973       177.22         
21.9965       0.49897       175.88        4.986E-1      -5.23         4.988E-1      -5.21         0.49975       177.14         
22.5964       0.49885       175.77        4.986E-1      -5.38         4.988E-1      -5.35         0.49974       177.06         
23.1963       0.49886       175.66        4.986E-1      -5.52         4.987E-1      -5.49         0.49972       176.99         
23.7962       0.49883       175.56        4.985E-1      -5.66         4.987E-1      -5.64         0.49972       176.91         
24.3961       0.49877       175.45        4.985E-1      -5.80         4.987E-1      -5.79         0.49966       176.83         
24.9960       0.49873       175.33        4.985E-1      -5.95         4.988E-1      -5.92         0.49967       176.75         
25.5959       0.49873       175.22        4.985E-1      -6.10         4.987E-1      -6.07         0.49971       176.67         
26.1958       0.49869       175.11        4.985E-1      -6.24         4.986E-1      -6.20         0.49967       176.60         
26.7957       0.49867       175.00        4.985E-1      -6.39         4.987E-1      -6.35         0.49972       176.52         
27.3956       0.49867       174.89        4.985E-1      -6.53         4.987E-1      -6.49         0.49966       176.44         
27.9955       0.49863       174.78        4.984E-1      -6.67         4.985E-1      -6.64         0.49963       176.36         
28.5954       0.49856       174.68        4.984E-1      -6.82         4.986E-1      -6.78         0.49968       176.28         
29.1953       0.49855       174.57        4.984E-1      -6.96         4.986E-1      -6.92         0.4997        176.21         
29.7952       0.49859       174.45        4.984E-1      -7.10         4.985E-1      -7.06         0.49967       176.13         
30.3951       0.49859       174.34        4.983E-1      -7.25         4.985E-1      -7.20         0.49969       176.06         
30.9950       0.49859       174.23        4.984E-1      -7.39         4.985E-1      -7.34         0.49965       175.98         
31.5949       0.49859       174.12        4.984E-1      -7.53         4.984E-1      -7.48         0.49967       175.90         
32.1948       0.49854       174.00        4.984E-1      -7.68         4.984E-1      -7.62         0.49964       175.82         
32.7947       0.49852       173.90        4.983E-1      -7.82         4.984E-1      -7.76         0.49964       175.75         
33.3946       0.49848       173.79        4.983E-1      -7.97         4.983E-1      -7.90         0.4996        175.67         
33.9945       0.49847       173.69        4.983E-1      -8.11         4.984E-1      -8.04         0.49961       175.59         
34.5944       0.49846       173.57        4.983E-1      -8.25         4.984E-1      -8.18         0.49964       175.51         
35.1943       0.49843       173.47        4.983E-1      -8.39         4.983E-1      -8.31         0.49964       175.44         
35.7942       0.49837       173.35        4.982E-1      -8.54         4.983E-1      -8.46         0.49961       175.36         
36.3941       0.4984        173.25        4.983E-1      -8.67         4.983E-1      -8.59         0.49966       175.28         
36.9940       0.49835       173.14        4.983E-1      -8.82         4.983E-1      -8.74         0.49964       175.21         
37.5939       0.49836       173.02        4.983E-1      -8.95         4.983E-1      -8.88         0.49965       175.13         
38.1938       0.49831       172.91        4.983E-1      -9.10         4.983E-1      -9.02         0.49969       175.05         
38.7937       0.49838       172.81        4.983E-1      -9.25         4.982E-1      -9.16         0.49963       174.98         
39.3936       0.49835       172.70        4.983E-1      -9.38         4.982E-1      -9.29         0.49965       174.90         
39.9935       0.49833       172.59        4.983E-1      -9.53         4.982E-1      -9.43         0.49964       174.82         
40.5934       0.4983        172.49        4.982E-1      -9.67         4.982E-1      -9.57         0.49962       174.74         
41.1933       0.49829       172.38        4.982E-1      -9.81         4.982E-1      -9.71         0.49966       174.66         
41.7932       0.49821       172.27        4.982E-1      -9.95         4.982E-1      -9.84         0.49967       174.59         
42.3931       0.49817       172.16        4.982E-1      -10.08        4.982E-1      -9.98         0.49967       174.51         
42.9930       0.4982        172.04        4.982E-1      -10.23        4.982E-1      -10.12        0.49966       174.43         
43.5929       0.49816       171.94        4.982E-1      -10.36        4.982E-1      -10.27        0.49969       174.36         
44.1928       0.49813       171.83        4.982E-1      -10.51        4.981E-1      -10.40        0.49967       174.28         
44.7927       0.4981        171.72        4.981E-1      -10.65        4.981E-1      -10.53        0.49965       174.21         
45.3926       0.49809       171.61        4.981E-1      -10.80        4.981E-1      -10.67        0.49966       174.13         
45.9925       0.49812       171.50        4.981E-1      -10.94        4.981E-1      -10.81        0.49962       174.05         
46.5924       0.49808       171.40        4.981E-1      -11.07        4.98E-1       -10.95        0.49965       173.98         
47.1923       0.49807       171.29        4.978E-1      -11.10        4.984E-1      -11.24        0.49964       173.91         
47.7922       0.49803       171.18        4.976E-1      -11.16        4.985E-1      -11.42        0.49961       173.83         
48.3921       0.498         171.06        4.975E-1      -11.26        4.985E-1      -11.61        0.4996        173.76         
48.9920       0.49803       170.95        4.975E-1      -11.37        4.989E-1      -11.79        0.49947       173.69         
49.5919       0.498         170.84        4.958E-1      -11.84        4.988E-1      -11.47        0.4996        173.60         
50.1918       0.49798       170.74        4.98E-1       -11.92        4.981E-1      -11.77        0.49972       173.52         
50.7917       0.49793       170.63        4.98E-1       -12.04        4.98E-1       -11.92        0.4997        173.44         
51.3916       0.49794       170.52        4.98E-1       -12.19        4.979E-1      -12.05        0.49969       173.36         
51.9915       0.49792       170.40        4.98E-1       -12.33        4.979E-1      -12.19        0.4997        173.28         
52.5914       0.49787       170.31        4.98E-1       -12.46        4.979E-1      -12.33        0.49965       173.21         
53.1913       0.49785       170.19        4.98E-1       -12.60        4.979E-1      -12.47        0.49972       173.13         
53.7912       0.49784       170.09        4.98E-1       -12.74        4.979E-1      -12.61        0.49969       173.06         
54.3911       0.4978        169.98        4.98E-1       -12.88        4.979E-1      -12.75        0.49964       172.98         
54.9910       0.49781       169.86        4.98E-1       -13.02        4.979E-1      -12.89        0.49969       172.91         
55.5909       0.49781       169.75        4.98E-1       -13.16        4.979E-1      -13.03        0.49967       172.83         
56.1908       0.49778       169.63        4.979E-1      -13.30        4.978E-1      -13.17        0.49968       172.75         
56.7907       0.49783       169.52        4.98E-1       -13.44        4.978E-1      -13.32        0.49971       172.68         
57.3906       0.49781       169.41        4.979E-1      -13.58        4.978E-1      -13.46        0.49966       172.59         
57.9905       0.49774       169.30        4.979E-1      -13.72        4.978E-1      -13.60        0.49971       172.52         
58.5904       0.49771       169.19        4.98E-1       -13.86        4.977E-1      -13.74        0.49973       172.45         
59.1903       0.49767       169.08        4.979E-1      -14.00        4.977E-1      -13.87        0.49971       172.37         
59.7902       0.49768       168.98        4.979E-1      -14.14        4.977E-1      -14.01        0.4997        172.29         
60.3901       0.49766       168.87        4.98E-1       -14.29        4.977E-1      -14.15        0.49974       172.21         
60.9900       0.49765       168.77        4.979E-1      -14.42        4.977E-1      -14.29        0.49976       172.13         
61.5899       0.49765       168.66        4.98E-1       -14.56        4.977E-1      -14.43        0.49979       172.05         
62.1898       0.49766       168.54        4.979E-1      -14.71        4.977E-1      -14.57        0.49978       171.98         
62.7897       0.49761       168.44        4.979E-1      -14.84        4.976E-1      -14.72        0.49978       171.90         
63.3896       0.49758       168.33        4.979E-1      -14.97        4.976E-1      -14.85        0.49976       171.82         
63.9895       0.49756       168.22        4.979E-1      -15.11        4.975E-1      -14.99        0.49974       171.74         
64.5894       0.49758       168.11        4.979E-1      -15.25        4.976E-1      -15.14        0.49978       171.67         
65.1893       0.49755       168.00        4.978E-1      -15.39        4.975E-1      -15.29        0.49979       171.59         
65.7892       0.49747       167.89        4.979E-1      -15.53        4.976E-1      -15.42        0.49978       171.51         
66.3891       0.49749       167.78        4.978E-1      -15.66        4.975E-1      -15.57        0.49976       171.43         
66.9890       0.49746       167.66        4.978E-1      -15.80        4.974E-1      -15.71        0.49977       171.36         
67.5889       0.49746       167.56        4.978E-1      -15.94        4.975E-1      -15.85        0.49976       171.29         
68.1888       0.49748       167.44        4.979E-1      -16.07        4.974E-1      -16.00        0.49973       171.21         
68.7887       0.49735       167.34        4.978E-1      -16.21        4.974E-1      -16.14        0.49979       171.13         
69.3886       0.49743       167.22        4.978E-1      -16.34        4.974E-1      -16.28        0.49976       171.05         
69.9885       0.49738       167.12        4.978E-1      -16.48        4.974E-1      -16.44        0.49975       170.98         
70.5884       0.4974        167.01        4.977E-1      -16.63        4.973E-1      -16.57        0.49979       170.90         
71.1883       0.49732       166.89        4.977E-1      -16.77        4.974E-1      -16.71        0.49978       170.82         
71.7882       0.49729       166.79        4.977E-1      -16.91        4.974E-1      -16.85        0.49974       170.74         
72.3881       0.49724       166.68        4.977E-1      -17.04        4.974E-1      -16.99        0.49977       170.66         
72.9880       0.49723       166.57        4.978E-1      -17.19        4.973E-1      -17.12        0.4998        170.58         
73.5879       0.49726       166.47        4.977E-1      -17.34        4.974E-1      -17.26        0.49976       170.50         
74.1878       0.49728       166.36        4.977E-1      -17.48        4.973E-1      -17.39        0.49983       170.43         
74.7877       0.49725       166.25        4.977E-1      -17.63        4.973E-1      -17.53        0.4998        170.35         
75.3876       0.49723       166.15        4.976E-1      -17.77        4.973E-1      -17.65        0.49975       170.27         
75.9875       0.49723       166.04        4.977E-1      -17.91        4.973E-1      -17.80        0.49985       170.20         
76.5874       0.49722       165.93        4.976E-1      -18.04        4.973E-1      -17.93        0.49982       170.12         
77.1873       0.49713       165.83        4.976E-1      -18.17        4.973E-1      -18.08        0.49979       170.05         
77.7872       0.4971        165.72        4.977E-1      -18.30        4.972E-1      -18.23        0.49984       169.97         
78.3871       0.49707       165.62        4.976E-1      -18.44        4.972E-1      -18.38        0.49985       169.89         
78.9870       0.49706       165.52        4.977E-1      -18.56        4.971E-1      -18.53        0.49986       169.81         
79.5869       0.49703       165.41        4.977E-1      -18.69        4.971E-1      -18.69        0.49983       169.74         
80.1868       0.49701       165.31        4.977E-1      -18.80        4.971E-1      -18.85        0.49987       169.66         
80.7867       0.49704       165.20        4.978E-1      -18.90        4.971E-1      -19.04        0.49988       169.59         
81.3866       0.49701       165.09        4.977E-1      -19.01        4.971E-1      -19.20        0.49987       169.51         
81.9865       0.49697       164.99        4.976E-1      -19.12        4.971E-1      -19.35        0.49991       169.43         
82.5864       0.49695       164.88        4.975E-1      -19.26        4.971E-1      -19.49        0.49989       169.36         
83.1863       0.497         164.77        4.975E-1      -19.40        4.972E-1      -19.62        0.49995       169.28         
83.7862       0.49697       164.67        4.975E-1      -19.53        4.972E-1      -19.76        0.49992       169.20         
84.3861       0.49695       164.56        4.975E-1      -19.69        4.972E-1      -19.88        0.49997       169.12         
84.9860       0.49694       164.45        4.974E-1      -19.86        4.972E-1      -19.99        0.49998       169.05         
85.5859       0.49695       164.35        4.974E-1      -20.03        4.971E-1      -20.11        0.49998       168.97         
86.1858       0.49692       164.23        4.974E-1      -20.18        4.972E-1      -20.24        0.49996       168.89         
86.7857       0.4969        164.12        4.973E-1      -20.29        4.972E-1      -20.42        0.49998       168.82         
87.3856       0.49686       163.99        4.973E-1      -20.40        4.972E-1      -20.58        0.50001       168.74         
87.9855       0.49688       163.88        4.973E-1      -20.55        4.972E-1      -20.71        0.49999       168.67         
88.5854       0.49682       163.77        4.972E-1      -20.69        4.972E-1      -20.86        0.50003       168.59         
89.1853       0.49679       163.66        4.971E-1      -20.83        4.972E-1      -20.99        0.50001       168.52         
89.7852       0.49674       163.55        4.972E-1      -20.96        4.972E-1      -21.13        0.49999       168.45         
90.3851       0.49673       163.45        4.971E-1      -21.11        4.972E-1      -21.27        0.49999       168.36         
90.9850       0.49669       163.34        4.972E-1      -21.24        4.972E-1      -21.41        0.50001       168.29         
91.5849       0.49664       163.23        4.971E-1      -21.39        4.972E-1      -21.54        0.50004       168.22         
92.1848       0.49665       163.11        4.971E-1      -21.54        4.972E-1      -21.67        0.50007       168.14         
92.7847       0.49659       163.02        4.972E-1      -21.68        4.972E-1      -21.83        0.50005       168.06         
93.3846       0.49658       162.90        4.971E-1      -21.82        4.971E-1      -21.95        0.50007       167.99         
