! P2-P1  26-Dec-22   13:01:13 
! Ref Plane: 0.000 mm
# MHZ S MA R  50
!
1.0000        0.50075       179.77        5.001E-1      0.03          4.998E-1      -0.16         0.50          179.82         
1.5999        0.50061       179.67        5.00E-1       -0.11         4.997E-1      -0.24         0.50009       179.77         
2.1998        0.50055       179.56        4.998E-1      -0.24         4.996E-1      -0.30         0.5002        179.70         
2.7997        0.50048       179.46        4.998E-1      -0.35         4.996E-1      -0.40         0.50018       179.62         
3.3996        0.50035       179.34        4.997E-1      -0.45         4.995E-1      -0.50         0.50017       179.55         
3.9995        0.50025       179.23        4.997E-1      -0.55         4.995E-1      -0.61         0.50016       179.48         
4.5994        0.50022       179.11        4.997E-1      -0.65         4.996E-1      -0.73         0.50013       179.39         
5.1993        0.50017       179.00        4.997E-1      -0.74         4.995E-1      -0.86         0.5001        179.31         
5.7992        0.50011       178.89        4.996E-1      -0.86         4.995E-1      -0.97         0.50009       179.23         
6.3991        0.50004       178.79        4.996E-1      -0.99         4.995E-1      -1.04         0.50009       179.16         
6.9990        0.50001       178.68        4.995E-1      -1.12         4.995E-1      -1.12         0.50009       179.07         
7.5989        0.49989       178.58        4.995E-1      -1.25         4.996E-1      -1.21         0.50009       179.00         
8.1988        0.49989       178.45        4.994E-1      -1.37         4.996E-1      -1.31         0.50007       178.93         
8.7987        0.49983       178.35        4.994E-1      -1.48         4.996E-1      -1.41         0.50001       178.85         
9.3986        0.49979       178.23        4.993E-1      -1.59         4.996E-1      -1.52         0.50005       178.77         
9.9985        0.49971       178.13        4.993E-1      -1.70         4.996E-1      -1.63         0.50004       178.70         
10.5984       0.49972       178.02        4.992E-1      -1.81         4.996E-1      -1.74         0.50004       178.62         
11.1983       0.49966       177.91        4.991E-1      -1.91         4.996E-1      -1.84         0.50001       178.54         
11.7982       0.49965       177.80        4.99E-1       -2.03         4.997E-1      -1.94         0.49998       178.46         
12.3981       0.49963       177.69        4.99E-1       -2.14         4.997E-1      -2.05         0.49996       178.39         
12.9980       0.4996        177.58        4.989E-1      -2.24         4.996E-1      -2.15         0.49999       178.31         
13.5979       0.49955       177.47        4.989E-1      -2.35         4.996E-1      -2.26         0.49996       178.23         
14.1978       0.49954       177.35        4.989E-1      -2.46         4.995E-1      -2.36         0.49995       178.15         
14.7977       0.4995        177.24        4.99E-1       -2.57         4.994E-1      -2.47         0.4999        178.07         
15.3976       0.49948       177.13        4.991E-1      -2.66         4.994E-1      -2.59         0.49989       178.00         
15.9975       0.49941       177.03        4.991E-1      -2.77         4.993E-1      -2.70         0.49989       177.92         
16.5974       0.49937       176.91        4.991E-1      -2.87         4.993E-1      -2.81         0.49987       177.84         
17.1973       0.49937       176.80        4.99E-1       -2.97         4.993E-1      -2.92         0.4999        177.77         
17.7972       0.49932       176.69        4.99E-1       -3.07         4.992E-1      -3.03         0.4999        177.69         
18.3971       0.49932       176.59        4.99E-1       -3.17         4.992E-1      -3.14         0.49988       177.61         
18.9970       0.49922       176.47        4.99E-1       -3.28         4.992E-1      -3.25         0.49993       177.53         
19.5969       0.49927       176.37        4.99E-1       -3.39         4.992E-1      -3.35         0.49992       177.45         
20.1968       0.49925       176.25        4.99E-1       -3.49         4.991E-1      -3.45         0.49986       177.37         
20.7967       0.4992        176.14        4.989E-1      -3.60         4.991E-1      -3.56         0.49991       177.30         
21.3966       0.49919       176.03        4.99E-1       -3.71         4.991E-1      -3.66         0.49984       177.22         
21.9965       0.49923       175.93        4.989E-1      -3.81         4.991E-1      -3.77         0.49988       177.15         
22.5964       0.49912       175.81        4.989E-1      -3.93         4.99E-1       -3.87         0.49987       177.07         
23.1963       0.49911       175.71        4.989E-1      -4.02         4.99E-1       -3.98         0.49988       176.99         
23.7962       0.49911       175.60        4.989E-1      -4.13         4.99E-1       -4.09         0.49983       176.91         
24.3961       0.49904       175.49        4.988E-1      -4.24         4.99E-1       -4.19         0.49983       176.84         
24.9960       0.49905       175.38        4.988E-1      -4.34         4.99E-1       -4.29         0.49981       176.76         
25.5959       0.49898       175.26        4.988E-1      -4.45         4.99E-1       -4.39         0.49984       176.68         
26.1958       0.49895       175.16        4.988E-1      -4.55         4.989E-1      -4.50         0.49982       176.60         
26.7957       0.49896       175.05        4.987E-1      -4.66         4.99E-1       -4.60         0.4999        176.53         
27.3956       0.4989        174.93        4.987E-1      -4.77         4.989E-1      -4.71         0.49984       176.44         
27.9955       0.49891       174.83        4.987E-1      -4.87         4.989E-1      -4.81         0.49989       176.37         
28.5954       0.49887       174.73        4.988E-1      -4.97         4.989E-1      -4.91         0.49983       176.29         
29.1953       0.49885       174.62        4.987E-1      -5.08         4.988E-1      -5.01         0.49988       176.22         
29.7952       0.49888       174.50        4.987E-1      -5.18         4.988E-1      -5.12         0.49987       176.14         
30.3951       0.49893       174.39        4.987E-1      -5.29         4.988E-1      -5.22         0.4999        176.06         
30.9950       0.49885       174.28        4.987E-1      -5.40         4.988E-1      -5.32         0.49991       175.99         
31.5949       0.49887       174.17        4.987E-1      -5.50         4.987E-1      -5.43         0.49988       175.91         
32.1948       0.49885       174.05        4.987E-1      -5.61         4.987E-1      -5.53         0.49989       175.83         
32.7947       0.49882       173.95        4.987E-1      -5.71         4.987E-1      -5.62         0.49987       175.76         
33.3946       0.49877       173.84        4.986E-1      -5.82         4.987E-1      -5.73         0.49989       175.68         
33.9945       0.49876       173.73        4.986E-1      -5.92         4.987E-1      -5.83         0.49987       175.60         
34.5944       0.49873       173.62        4.986E-1      -6.02         4.987E-1      -5.93         0.49989       175.52         
35.1943       0.49871       173.52        4.986E-1      -6.13         4.987E-1      -6.02         0.49993       175.45         
35.7942       0.49869       173.40        4.986E-1      -6.23         4.987E-1      -6.13         0.49992       175.37         
36.3941       0.49865       173.29        4.986E-1      -6.33         4.986E-1      -6.23         0.49994       175.29         
36.9940       0.49863       173.19        4.986E-1      -6.44         4.986E-1      -6.34         0.49993       175.22         
37.5939       0.49862       173.08        4.986E-1      -6.54         4.986E-1      -6.44         0.49994       175.14         
38.1938       0.49859       172.96        4.986E-1      -6.64         4.986E-1      -6.54         0.49998       175.06         
38.7937       0.49866       172.86        4.986E-1      -6.75         4.985E-1      -6.64         0.49996       174.99         
39.3936       0.49862       172.75        4.986E-1      -6.85         4.986E-1      -6.73         0.50          174.92         
39.9935       0.49862       172.64        4.986E-1      -6.95         4.986E-1      -6.84         0.49999       174.83         
40.5934       0.49858       172.54        4.985E-1      -7.06         4.985E-1      -6.94         0.50          174.76         
41.1933       0.49859       172.43        4.985E-1      -7.16         4.985E-1      -7.04         0.50002       174.68         
41.7932       0.49853       172.32        4.986E-1      -7.26         4.986E-1      -7.13         0.50003       174.60         
42.3931       0.49849       172.21        4.986E-1      -7.36         4.985E-1      -7.23         0.50003       174.52         
42.9930       0.49851       172.10        4.985E-1      -7.47         4.985E-1      -7.33         0.50008       174.45         
43.5929       0.49845       172.00        4.985E-1      -7.56         4.985E-1      -7.44         0.50008       174.38         
44.1928       0.49842       171.89        4.985E-1      -7.67         4.984E-1      -7.54         0.50009       174.30         
44.7927       0.49841       171.78        4.985E-1      -7.77         4.984E-1      -7.64         0.50006       174.23         
45.3926       0.49843       171.67        4.985E-1      -7.88         4.984E-1      -7.73         0.50007       174.15         
45.9925       0.49837       171.56        4.985E-1      -7.97         4.984E-1      -7.83         0.50011       174.07         
46.5924       0.49837       171.45        4.984E-1      -8.07         4.984E-1      -7.93         0.50011       174.00         
47.1923       0.49836       171.36        4.982E-1      -8.07         4.987E-1      -8.17         0.5001        173.93         
47.7922       0.49834       171.24        4.98E-1       -8.11         4.988E-1      -8.30         0.50007       173.86         
48.3921       0.49833       171.13        4.98E-1       -8.18         4.988E-1      -8.45         0.50008       173.78         
48.9920       0.49833       171.02        4.978E-1      -8.26         4.992E-1      -8.60         0.49998       173.72         
49.5919       0.49832       170.91        4.963E-1      -8.68         4.99E-1       -8.28         0.50013       173.62         
50.1918       0.49829       170.80        4.983E-1      -8.70         4.984E-1      -8.52         0.50018       173.54         
50.7917       0.49825       170.69        4.984E-1      -8.78         4.983E-1      -8.63         0.50024       173.46         
51.3916       0.49826       170.58        4.984E-1      -8.89         4.982E-1      -8.73         0.5002        173.39         
51.9915       0.49817       170.48        4.984E-1      -8.98         4.983E-1      -8.83         0.5002        173.31         
52.5914       0.49818       170.36        4.984E-1      -9.09         4.983E-1      -8.94         0.50022       173.23         
53.1913       0.49814       170.25        4.984E-1      -9.19         4.983E-1      -9.03         0.50028       173.16         
53.7912       0.49813       170.15        4.983E-1      -9.29         4.982E-1      -9.13         0.50026       173.09         
54.3911       0.49813       170.04        4.983E-1      -9.39         4.982E-1      -9.23         0.50022       173.01         
54.9910       0.4981        169.93        4.983E-1      -9.50         4.982E-1      -9.33         0.50032       172.94         
55.5909       0.49809       169.81        4.983E-1      -9.60         4.982E-1      -9.43         0.50031       172.86         
56.1908       0.49808       169.70        4.983E-1      -9.70         4.982E-1      -9.54         0.50033       172.78         
56.7907       0.49808       169.59        4.983E-1      -9.80         4.982E-1      -9.65         0.50035       172.71         
57.3906       0.49809       169.48        4.983E-1      -9.90         4.982E-1      -9.75         0.5003        172.62         
57.9905       0.49804       169.37        4.983E-1      -10.00        4.981E-1      -9.86         0.50036       172.55         
58.5904       0.49799       169.26        4.983E-1      -10.10        4.981E-1      -9.96         0.5004        172.48         
59.1903       0.49794       169.16        4.983E-1      -10.20        4.981E-1      -10.05        0.50038       172.40         
59.7902       0.49798       169.05        4.983E-1      -10.30        4.981E-1      -10.15        0.50039       172.32         
60.3901       0.49793       168.95        4.983E-1      -10.41        4.981E-1      -10.25        0.50043       172.24         
60.9900       0.49791       168.84        4.983E-1      -10.51        4.98E-1       -10.35        0.50048       172.17         
61.5899       0.49792       168.73        4.983E-1      -10.61        4.981E-1      -10.45        0.50052       172.09         
62.1898       0.49795       168.62        4.982E-1      -10.72        4.98E-1       -10.56        0.50053       172.01         
62.7897       0.49789       168.51        4.982E-1      -10.82        4.979E-1      -10.66        0.50051       171.94         
63.3896       0.49786       168.40        4.983E-1      -10.91        4.98E-1       -10.76        0.50053       171.86         
63.9895       0.49784       168.30        4.982E-1      -11.01        4.979E-1      -10.86        0.50052       171.79         
64.5894       0.49785       168.19        4.982E-1      -11.11        4.979E-1      -10.98        0.50055       171.71         
65.1893       0.49782       168.08        4.982E-1      -11.21        4.979E-1      -11.07        0.5006        171.64         
65.7892       0.4978        167.96        4.982E-1      -11.30        4.979E-1      -11.18        0.50059       171.56         
66.3891       0.49779       167.85        4.982E-1      -11.40        4.978E-1      -11.28        0.50057       171.48         
66.9890       0.49772       167.74        4.982E-1      -11.50        4.978E-1      -11.39        0.50062       171.41         
67.5889       0.49773       167.63        4.982E-1      -11.60        4.979E-1      -11.49        0.50066       171.33         
68.1888       0.49772       167.52        4.981E-1      -11.69        4.978E-1      -11.59        0.50061       171.26         
68.7887       0.49768       167.42        4.982E-1      -11.80        4.978E-1      -11.70        0.50066       171.18         
69.3886       0.49773       167.31        4.982E-1      -11.88        4.978E-1      -11.80        0.50069       171.10         
69.9885       0.49766       167.20        4.981E-1      -11.99        4.978E-1      -11.92        0.50065       171.03         
70.5884       0.49765       167.09        4.981E-1      -12.09        4.976E-1      -12.02        0.50073       170.95         
71.1883       0.49761       166.98        4.981E-1      -12.20        4.977E-1      -12.11        0.50071       170.87         
71.7882       0.49756       166.87        4.981E-1      -12.30        4.977E-1      -12.21        0.50067       170.79         
72.3881       0.49756       166.76        4.981E-1      -12.40        4.976E-1      -12.31        0.50071       170.71         
72.9880       0.49753       166.66        4.981E-1      -12.50        4.976E-1      -12.41        0.50074       170.64         
73.5879       0.49751       166.55        4.98E-1       -12.61        4.977E-1      -12.51        0.50075       170.56         
74.1878       0.49757       166.44        4.98E-1       -12.72        4.977E-1      -12.60        0.50083       170.48         
74.7877       0.49753       166.34        4.98E-1       -12.83        4.976E-1      -12.70        0.5008        170.41         
75.3876       0.49751       166.24        4.98E-1       -12.93        4.976E-1      -12.80        0.50083       170.33         
75.9875       0.49751       166.13        4.981E-1      -13.03        4.976E-1      -12.90        0.50084       170.25         
76.5874       0.49745       166.02        4.98E-1       -13.13        4.976E-1      -13.01        0.50085       170.18         
77.1873       0.4974        165.92        4.98E-1       -13.22        4.976E-1      -13.12        0.50087       170.11         
77.7872       0.49739       165.81        4.98E-1       -13.31        4.976E-1      -13.22        0.50094       170.03         
78.3871       0.49732       165.70        4.98E-1       -13.41        4.976E-1      -13.33        0.50092       169.95         
78.9870       0.49733       165.60        4.98E-1       -13.50        4.975E-1      -13.44        0.50095       169.87         
79.5869       0.49728       165.50        4.98E-1       -13.58        4.974E-1      -13.56        0.50094       169.81         
80.1868       0.49726       165.40        4.981E-1      -13.65        4.974E-1      -13.69        0.501         169.73         
80.7867       0.4973        165.29        4.981E-1      -13.72        4.974E-1      -13.83        0.50097       169.65         
81.3866       0.49723       165.18        4.981E-1      -13.79        4.974E-1      -13.96        0.50105       169.58         
81.9865       0.49722       165.07        4.979E-1      -13.87        4.975E-1      -14.07        0.50104       169.51         
82.5864       0.49715       164.97        4.979E-1      -13.97        4.975E-1      -14.18        0.5011        169.43         
83.1863       0.49721       164.86        4.979E-1      -14.07        4.975E-1      -14.27        0.50109       169.35         
83.7862       0.49718       164.76        4.978E-1      -14.17        4.975E-1      -14.38        0.50112       169.28         
84.3861       0.49717       164.66        4.978E-1      -14.28        4.975E-1      -14.46        0.50118       169.19         
84.9860       0.49716       164.54        4.977E-1      -14.42        4.975E-1      -14.53        0.50115       169.12         
85.5859       0.49717       164.44        4.977E-1      -14.53        4.974E-1      -14.61        0.50121       169.04         
86.1858       0.49717       164.32        4.977E-1      -14.65        4.975E-1      -14.69        0.50118       168.97         
86.7857       0.49713       164.20        4.976E-1      -14.73        4.975E-1      -14.83        0.50123       168.89         
87.3856       0.4971        164.09        4.976E-1      -14.80        4.975E-1      -14.96        0.50124       168.82         
87.9855       0.49716       163.97        4.976E-1      -14.91        4.975E-1      -15.05        0.50126       168.75         
88.5854       0.49707       163.86        4.975E-1      -15.02        4.975E-1      -15.15        0.50127       168.67         
89.1853       0.49702       163.76        4.975E-1      -15.11        4.975E-1      -15.25        0.50125       168.60         
89.7852       0.49701       163.65        4.976E-1      -15.22        4.975E-1      -15.35        0.50127       168.53         
90.3851       0.49698       163.54        4.975E-1      -15.32        4.976E-1      -15.45        0.50129       168.45         
90.9850       0.49695       163.43        4.975E-1      -15.43        4.975E-1      -15.55        0.50131       168.37         
91.5849       0.49688       163.32        4.975E-1      -15.53        4.975E-1      -15.64        0.50132       168.30         
92.1848       0.49686       163.21        4.975E-1      -15.64        4.975E-1      -15.74        0.50136       168.22         
92.7847       0.4968        163.11        4.975E-1      -15.73        4.975E-1      -15.85        0.50139       168.15         
93.3846       0.49681       163.00        4.974E-1      -15.83        4.975E-1      -15.95        0.50142       168.08         
