! P2-P4  26-Dec-22   12:59:43 
! Ref Plane: 0.000 mm
# MHZ S MA R  50
!
1.0000        0.50079       179.79        5.001E-1      -0.06         4.997E-1      -0.16         0.49993       179.80         
1.5999        0.50062       179.68        4.999E-1      -0.24         4.996E-1      -0.29         0.50006       179.71         
2.1998        0.50053       179.57        4.998E-1      -0.41         4.994E-1      -0.39         0.50013       179.61         
2.7997        0.50047       179.47        4.998E-1      -0.56         4.994E-1      -0.53         0.50009       179.51         
3.3996        0.50033       179.34        4.997E-1      -0.70         4.994E-1      -0.67         0.50009       179.41         
3.9995        0.50025       179.24        4.996E-1      -0.84         4.993E-1      -0.82         0.50007       179.31         
4.5994        0.50018       179.13        4.996E-1      -0.97         4.994E-1      -0.98         0.50006       179.20         
5.1993        0.50015       179.01        4.996E-1      -1.11         4.993E-1      -1.15         0.50002       179.09         
5.7992        0.50008       178.90        4.995E-1      -1.26         4.992E-1      -1.30         0.49998       178.99         
6.3991        0.50005       178.80        4.995E-1      -1.44         4.993E-1      -1.41         0.49998       178.89         
6.9990        0.49998       178.69        4.994E-1      -1.60         4.993E-1      -1.53         0.49999       178.78         
7.5989        0.49989       178.58        4.994E-1      -1.76         4.993E-1      -1.66         0.49995       178.68         
8.1988        0.49985       178.46        4.993E-1      -1.93         4.994E-1      -1.80         0.49991       178.57         
8.7987        0.49983       178.35        4.993E-1      -2.07         4.994E-1      -1.94         0.49986       178.47         
9.3986        0.49977       178.24        4.992E-1      -2.23         4.993E-1      -2.09         0.4999        178.37         
9.9985        0.49966       178.13        4.992E-1      -2.37         4.993E-1      -2.24         0.49988       178.27         
10.5984       0.49968       178.02        4.991E-1      -2.52         4.994E-1      -2.38         0.49985       178.16         
11.1983       0.49962       177.91        4.99E-1       -2.67         4.994E-1      -2.52         0.49981       178.05         
11.7982       0.49959       177.80        4.989E-1      -2.81         4.994E-1      -2.67         0.49983       177.95         
12.3981       0.49957       177.69        4.989E-1      -2.96         4.994E-1      -2.81         0.49977       177.85         
12.9980       0.49954       177.59        4.988E-1      -3.11         4.994E-1      -2.95         0.49976       177.75         
13.5979       0.4995        177.47        4.988E-1      -3.26         4.993E-1      -3.09         0.49975       177.64         
14.1978       0.49947       177.36        4.988E-1      -3.40         4.992E-1      -3.24         0.49972       177.54         
14.7977       0.49945       177.24        4.989E-1      -3.55         4.992E-1      -3.39         0.49965       177.43         
15.3976       0.49941       177.14        4.989E-1      -3.68         4.991E-1      -3.55         0.49967       177.32         
15.9975       0.49939       177.03        4.989E-1      -3.83         4.991E-1      -3.69         0.49961       177.23         
16.5974       0.49933       176.91        4.989E-1      -3.97         4.99E-1       -3.84         0.49964       177.12         
17.1973       0.49933       176.81        4.989E-1      -4.11         4.99E-1       -4.00         0.49957       177.02         
17.7972       0.49925       176.70        4.989E-1      -4.24         4.99E-1       -4.15         0.49958       176.91         
18.3971       0.49924       176.59        4.989E-1      -4.39         4.99E-1       -4.29         0.49956       176.81         
18.9970       0.49917       176.48        4.988E-1      -4.54         4.99E-1       -4.44         0.49957       176.70         
19.5969       0.49914       176.37        4.988E-1      -4.68         4.99E-1       -4.57         0.49957       176.59         
20.1968       0.49916       176.26        4.988E-1      -4.83         4.989E-1      -4.72         0.49949       176.49         
20.7967       0.49917       176.15        4.988E-1      -4.97         4.989E-1      -4.87         0.49952       176.39         
21.3966       0.49914       176.04        4.988E-1      -5.12         4.988E-1      -5.01         0.49942       176.28         
21.9965       0.49919       175.93        4.987E-1      -5.27         4.988E-1      -5.15         0.49946       176.18         
22.5964       0.4991        175.82        4.987E-1      -5.41         4.988E-1      -5.29         0.4994        176.08         
23.1963       0.49902       175.71        4.987E-1      -5.55         4.987E-1      -5.44         0.49937       175.98         
23.7962       0.49905       175.61        4.987E-1      -5.70         4.988E-1      -5.59         0.49934       175.87         
24.3961       0.49896       175.49        4.987E-1      -5.84         4.987E-1      -5.73         0.49931       175.77         
24.9960       0.49897       175.38        4.987E-1      -5.98         4.988E-1      -5.87         0.4993        175.67         
25.5959       0.49894       175.27        4.986E-1      -6.13         4.988E-1      -6.01         0.49931       175.56         
26.1958       0.49887       175.16        4.986E-1      -6.27         4.987E-1      -6.15         0.4993        175.46         
26.7957       0.49891       175.06        4.986E-1      -6.42         4.987E-1      -6.29         0.49929       175.35         
27.3956       0.4989        174.94        4.986E-1      -6.56         4.987E-1      -6.43         0.49927       175.25         
27.9955       0.49882       174.84        4.986E-1      -6.70         4.986E-1      -6.58         0.49923       175.14         
28.5954       0.49882       174.73        4.986E-1      -6.85         4.987E-1      -6.72         0.49922       175.04         
29.1953       0.49879       174.62        4.986E-1      -6.99         4.986E-1      -6.87         0.49921       174.94         
29.7952       0.49882       174.51        4.986E-1      -7.13         4.986E-1      -7.01         0.49919       174.84         
30.3951       0.4988        174.40        4.985E-1      -7.28         4.985E-1      -7.14         0.49914       174.73         
30.9950       0.49877       174.28        4.985E-1      -7.42         4.986E-1      -7.29         0.49917       174.63         
31.5949       0.4988        174.18        4.985E-1      -7.56         4.985E-1      -7.43         0.4991        174.52         
32.1948       0.49873       174.06        4.985E-1      -7.71         4.985E-1      -7.57         0.49908       174.42         
32.7947       0.49874       173.95        4.985E-1      -7.86         4.985E-1      -7.71         0.4991        174.32         
33.3946       0.49868       173.84        4.985E-1      -8.00         4.985E-1      -7.85         0.49906       174.22         
33.9945       0.49869       173.74        4.985E-1      -8.14         4.985E-1      -7.99         0.49905       174.11         
34.5944       0.49867       173.63        4.985E-1      -8.28         4.985E-1      -8.13         0.49898       174.01         
35.1943       0.49861       173.53        4.984E-1      -8.43         4.984E-1      -8.26         0.499         173.91         
35.7942       0.49859       173.41        4.985E-1      -8.57         4.984E-1      -8.41         0.499         173.80         
36.3941       0.49864       173.30        4.985E-1      -8.71         4.984E-1      -8.55         0.49896       173.69         
36.9940       0.49857       173.19        4.985E-1      -8.86         4.984E-1      -8.69         0.49891       173.60         
37.5939       0.49855       173.08        4.985E-1      -8.99         4.984E-1      -8.84         0.49894       173.49         
38.1938       0.49851       172.97        4.985E-1      -9.13         4.985E-1      -8.97         0.49895       173.39         
38.7937       0.4986        172.87        4.985E-1      -9.28         4.984E-1      -9.11         0.49889       173.29         
39.3936       0.49858       172.76        4.985E-1      -9.42         4.984E-1      -9.24         0.4989        173.18         
39.9935       0.49853       172.65        4.985E-1      -9.56         4.984E-1      -9.38         0.49891       173.08         
40.5934       0.49849       172.55        4.984E-1      -9.70         4.984E-1      -9.52         0.49887       172.97         
41.1933       0.4985        172.44        4.984E-1      -9.84         4.983E-1      -9.66         0.49887       172.87         
41.7932       0.49848       172.33        4.985E-1      -9.98         4.983E-1      -9.79         0.49884       172.77         
42.3931       0.49839       172.22        4.984E-1      -10.12        4.983E-1      -9.94         0.49879       172.66         
42.9930       0.4984        172.11        4.984E-1      -10.26        4.984E-1      -10.07        0.4988        172.56         
43.5929       0.49837       172.00        4.984E-1      -10.40        4.983E-1      -10.22        0.4988        172.46         
44.1928       0.49837       171.90        4.984E-1      -10.54        4.983E-1      -10.35        0.49872       172.36         
44.7927       0.49832       171.78        4.983E-1      -10.69        4.983E-1      -10.49        0.49871       172.25         
45.3926       0.49836       171.68        4.984E-1      -10.83        4.983E-1      -10.62        0.49869       172.15         
45.9925       0.49834       171.57        4.984E-1      -10.97        4.983E-1      -10.76        0.49865       172.05         
46.5924       0.49835       171.46        4.984E-1      -11.11        4.982E-1      -10.90        0.49862       171.95         
47.1923       0.49825       171.36        4.981E-1      -11.15        4.985E-1      -11.17        0.49864       171.85         
47.7922       0.49825       171.26        4.98E-1       -11.23        4.986E-1      -11.34        0.49856       171.75         
48.3921       0.49827       171.14        4.98E-1       -11.34        4.986E-1      -11.52        0.49852       171.65         
48.9920       0.49828       171.02        4.979E-1      -11.46        4.99E-1       -11.70        0.49838       171.56         
49.5919       0.49821       170.91        4.963E-1      -11.92        4.986E-1      -11.48        0.49852       171.44         
50.1918       0.49824       170.81        4.983E-1      -11.96        4.983E-1      -11.72        0.49855       171.33         
50.7917       0.4982        170.69        4.983E-1      -12.08        4.982E-1      -11.86        0.4985        171.23         
51.3916       0.49819       170.58        4.983E-1      -12.23        4.981E-1      -12.00        0.49851       171.12         
51.9915       0.49811       170.48        4.983E-1      -12.37        4.982E-1      -12.14        0.49846       171.02         
52.5914       0.4981        170.38        4.984E-1      -12.51        4.981E-1      -12.28        0.49845       170.93         
53.1913       0.49807       170.26        4.983E-1      -12.65        4.981E-1      -12.43        0.49842       170.82         
53.7912       0.49804       170.16        4.983E-1      -12.78        4.981E-1      -12.56        0.49837       170.72         
54.3911       0.49804       170.05        4.983E-1      -12.92        4.981E-1      -12.70        0.49831       170.61         
54.9910       0.49808       169.93        4.984E-1      -13.06        4.981E-1      -12.85        0.49832       170.52         
55.5909       0.49805       169.82        4.983E-1      -13.20        4.981E-1      -12.98        0.49828       170.41         
56.1908       0.49798       169.71        4.983E-1      -13.34        4.981E-1      -13.13        0.4983        170.30         
56.7907       0.49799       169.59        4.983E-1      -13.48        4.981E-1      -13.28        0.49827       170.20         
57.3906       0.498         169.48        4.982E-1      -13.62        4.981E-1      -13.41        0.49821       170.10         
57.9905       0.49797       169.37        4.983E-1      -13.76        4.981E-1      -13.55        0.49819       169.99         
58.5904       0.49796       169.27        4.983E-1      -13.90        4.98E-1       -13.69        0.49819       169.90         
59.1903       0.49788       169.16        4.983E-1      -14.05        4.98E-1       -13.82        0.49817       169.79         
59.7902       0.4979        169.05        4.983E-1      -14.18        4.98E-1       -13.97        0.49816       169.69         
60.3901       0.49787       168.95        4.983E-1      -14.33        4.98E-1       -14.11        0.49811       169.57         
60.9900       0.49785       168.84        4.983E-1      -14.47        4.98E-1       -14.25        0.49811       169.47         
61.5899       0.49783       168.73        4.983E-1      -14.61        4.98E-1       -14.39        0.49808       169.37         
62.1898       0.49785       168.62        4.983E-1      -14.75        4.98E-1       -14.53        0.49808       169.27         
62.7897       0.49783       168.51        4.982E-1      -14.88        4.979E-1      -14.68        0.49806       169.16         
63.3896       0.49782       168.40        4.983E-1      -15.02        4.98E-1       -14.81        0.49801       169.06         
63.9895       0.49776       168.30        4.983E-1      -15.15        4.979E-1      -14.96        0.49797       168.96         
64.5894       0.49779       168.19        4.983E-1      -15.30        4.979E-1      -15.10        0.49796       168.85         
65.1893       0.49777       168.08        4.982E-1      -15.44        4.978E-1      -15.24        0.49793       168.75         
65.7892       0.49771       167.97        4.983E-1      -15.58        4.979E-1      -15.38        0.49789       168.65         
66.3891       0.4977        167.85        4.982E-1      -15.71        4.978E-1      -15.53        0.49781       168.55         
66.9890       0.49765       167.74        4.982E-1      -15.84        4.978E-1      -15.68        0.49782       168.44         
67.5889       0.49766       167.63        4.982E-1      -15.98        4.979E-1      -15.82        0.49778       168.34         
68.1888       0.49769       167.52        4.982E-1      -16.11        4.978E-1      -15.96        0.49775       168.24         
68.7887       0.49758       167.42        4.983E-1      -16.25        4.978E-1      -16.10        0.49772       168.13         
69.3886       0.49764       167.31        4.982E-1      -16.38        4.978E-1      -16.25        0.49771       168.02         
69.9885       0.49762       167.20        4.982E-1      -16.52        4.978E-1      -16.40        0.49767       167.92         
70.5884       0.49761       167.09        4.982E-1      -16.67        4.977E-1      -16.54        0.49765       167.82         
71.1883       0.49754       166.98        4.982E-1      -16.81        4.978E-1      -16.67        0.49759       167.72         
71.7882       0.49748       166.87        4.982E-1      -16.96        4.978E-1      -16.81        0.49753       167.61         
72.3881       0.49746       166.76        4.982E-1      -17.09        4.978E-1      -16.95        0.49754       167.50         
72.9880       0.49746       166.65        4.982E-1      -17.24        4.978E-1      -17.09        0.49751       167.40         
73.5879       0.49746       166.55        4.981E-1      -17.39        4.978E-1      -17.23        0.49743       167.29         
74.1878       0.49748       166.44        4.981E-1      -17.53        4.978E-1      -17.36        0.49747       167.19         
74.7877       0.49747       166.34        4.982E-1      -17.67        4.977E-1      -17.50        0.4974        167.08         
75.3876       0.49743       166.23        4.981E-1      -17.82        4.977E-1      -17.62        0.49735       166.99         
75.9875       0.4974        166.13        4.982E-1      -17.96        4.977E-1      -17.76        0.49737       166.88         
76.5874       0.4974        166.02        4.981E-1      -18.09        4.977E-1      -17.90        0.49735       166.78         
77.1873       0.49733       165.91        4.982E-1      -18.22        4.977E-1      -18.05        0.49729       166.68         
77.7872       0.4973        165.80        4.982E-1      -18.35        4.977E-1      -18.20        0.49734       166.58         
78.3871       0.49727       165.70        4.982E-1      -18.48        4.977E-1      -18.34        0.49724       166.47         
78.9870       0.49727       165.60        4.982E-1      -18.61        4.976E-1      -18.49        0.49721       166.37         
79.5869       0.4972        165.49        4.982E-1      -18.74        4.976E-1      -18.66        0.49716       166.27         
80.1868       0.49724       165.39        4.983E-1      -18.85        4.976E-1      -18.83        0.49715       166.16         
80.7867       0.49722       165.28        4.983E-1      -18.95        4.976E-1      -19.01        0.49716       166.06         
81.3866       0.49716       165.18        4.983E-1      -19.06        4.976E-1      -19.17        0.49712       165.96         
81.9865       0.49715       165.07        4.981E-1      -19.18        4.976E-1      -19.32        0.49707       165.86         
82.5864       0.49715       164.96        4.981E-1      -19.32        4.977E-1      -19.45        0.49707       165.75         
83.1863       0.49712       164.86        4.981E-1      -19.46        4.977E-1      -19.59        0.49702       165.65         
83.7862       0.49715       164.76        4.981E-1      -19.59        4.977E-1      -19.73        0.49705       165.55         
84.3861       0.4971        164.65        4.98E-1       -19.75        4.977E-1      -19.85        0.49697       165.44         
84.9860       0.49711       164.54        4.98E-1       -19.92        4.977E-1      -19.97        0.49697       165.34         
85.5859       0.49712       164.43        4.98E-1       -20.07        4.977E-1      -20.09        0.49692       165.23         
86.1858       0.49713       164.32        4.98E-1       -20.23        4.977E-1      -20.22        0.49689       165.13         
86.7857       0.49706       164.20        4.979E-1      -20.34        4.978E-1      -20.38        0.49685       165.03         
87.3856       0.49703       164.08        4.979E-1      -20.47        4.978E-1      -20.54        0.49679       164.93         
87.9855       0.49708       163.96        4.979E-1      -20.62        4.978E-1      -20.66        0.49675       164.83         
88.5854       0.49695       163.86        4.978E-1      -20.76        4.978E-1      -20.82        0.4967        164.73         
89.1853       0.49692       163.75        4.978E-1      -20.89        4.978E-1      -20.95        0.49668       164.63         
89.7852       0.4969        163.64        4.979E-1      -21.03        4.978E-1      -21.08        0.49666       164.53         
90.3851       0.49688       163.53        4.978E-1      -21.17        4.978E-1      -21.23        0.4966        164.42         
90.9850       0.49687       163.43        4.979E-1      -21.31        4.978E-1      -21.36        0.49658       164.32         
91.5849       0.49682       163.32        4.979E-1      -21.45        4.978E-1      -21.49        0.49654       164.22         
92.1848       0.49679       163.20        4.978E-1      -21.60        4.978E-1      -21.63        0.49648       164.12         
92.7847       0.49674       163.11        4.979E-1      -21.74        4.978E-1      -21.78        0.4965        164.02         
93.3846       0.4967        162.99        4.978E-1      -21.88        4.978E-1      -21.91        0.49645       163.92         
