! P3-P4  26-Dec-22   12:57:24 
! Ref Plane: 0.000 mm
# MHZ S MA R  50
!
1.0000        0.5008        179.84        5.001E-1      0.04          4.998E-1      -0.11         0.49987       179.80         
1.5999        0.5007        179.76        5.00E-1       -0.11         4.997E-1      -0.18         0.50001       179.72         
2.1998        0.50065       179.69        4.999E-1      -0.23         4.995E-1      -0.24         0.5001        179.63         
2.7997        0.50056       179.62        4.998E-1      -0.34         4.996E-1      -0.34         0.50008       179.53         
3.3996        0.50049       179.53        4.998E-1      -0.44         4.995E-1      -0.43         0.50005       179.43         
3.9995        0.50039       179.45        4.997E-1      -0.54         4.995E-1      -0.55         0.50006       179.33         
4.5994        0.50034       179.37        4.997E-1      -0.64         4.996E-1      -0.66         0.49998       179.21         
5.1993        0.50028       179.29        4.997E-1      -0.73         4.995E-1      -0.79         0.49999       179.11         
5.7992        0.50023       179.21        4.996E-1      -0.84         4.995E-1      -0.90         0.49997       179.00         
6.3991        0.50021       179.14        4.996E-1      -0.98         4.995E-1      -0.97         0.49998       178.91         
6.9990        0.50014       179.06        4.995E-1      -1.10         4.995E-1      -1.05         0.49995       178.79         
7.5989        0.50009       178.98        4.995E-1      -1.22         4.996E-1      -1.14         0.49995       178.69         
8.1988        0.50002       178.90        4.994E-1      -1.34         4.996E-1      -1.23         0.49988       178.59         
8.7987        0.50001       178.82        4.994E-1      -1.45         4.996E-1      -1.34         0.49986       178.49         
9.3986        0.49991       178.74        4.993E-1      -1.56         4.996E-1      -1.43         0.4999        178.39         
9.9985        0.4999        178.67        4.993E-1      -1.67         4.996E-1      -1.54         0.49987       178.28         
10.5984       0.49987       178.59        4.992E-1      -1.78         4.996E-1      -1.65         0.49984       178.17         
11.1983       0.49988       178.50        4.992E-1      -1.88         4.996E-1      -1.75         0.49978       178.07         
11.7982       0.49981       178.43        4.991E-1      -1.98         4.996E-1      -1.85         0.49981       177.96         
12.3981       0.49978       178.35        4.991E-1      -2.10         4.997E-1      -1.96         0.49975       177.86         
12.9980       0.49979       178.28        4.99E-1       -2.20         4.996E-1      -2.05         0.49975       177.75         
13.5979       0.49973       178.20        4.99E-1       -2.30         4.995E-1      -2.16         0.49973       177.66         
14.1978       0.49978       178.11        4.99E-1       -2.41         4.995E-1      -2.26         0.49969       177.55         
14.7977       0.49974       178.03        4.991E-1      -2.51         4.994E-1      -2.38         0.49964       177.45         
15.3976       0.49972       177.95        4.991E-1      -2.61         4.994E-1      -2.49         0.49964       177.34         
15.9975       0.49969       177.88        4.991E-1      -2.71         4.993E-1      -2.59         0.49958       177.24         
16.5974       0.49966       177.80        4.991E-1      -2.81         4.993E-1      -2.70         0.4996        177.13         
17.1973       0.4996        177.73        4.991E-1      -2.91         4.992E-1      -2.81         0.49958       177.03         
17.7972       0.49964       177.65        4.991E-1      -3.01         4.992E-1      -2.92         0.49955       176.92         
18.3971       0.49957       177.57        4.991E-1      -3.10         4.992E-1      -3.02         0.49956       176.82         
18.9970       0.49957       177.49        4.991E-1      -3.21         4.992E-1      -3.13         0.49956       176.72         
19.5969       0.49955       177.41        4.99E-1       -3.32         4.992E-1      -3.23         0.49955       176.60         
20.1968       0.49955       177.34        4.99E-1       -3.42         4.992E-1      -3.33         0.49949       176.50         
20.7967       0.49954       177.26        4.99E-1       -3.52         4.991E-1      -3.44         0.49949       176.41         
21.3966       0.49953       177.18        4.99E-1       -3.63         4.991E-1      -3.53         0.49941       176.30         
21.9965       0.49955       177.09        4.989E-1      -3.73         4.991E-1      -3.64         0.4994        176.20         
22.5964       0.49948       177.02        4.989E-1      -3.84         4.991E-1      -3.73         0.4994        176.09         
23.1963       0.49949       176.94        4.989E-1      -3.94         4.99E-1       -3.84         0.49938       175.98         
23.7962       0.49953       176.87        4.99E-1       -4.04         4.991E-1      -3.95         0.49935       175.88         
24.3961       0.49939       176.80        4.989E-1      -4.14         4.99E-1       -4.05         0.49932       175.78         
24.9960       0.49944       176.71        4.989E-1      -4.25         4.991E-1      -4.15         0.49927       175.67         
25.5959       0.4994        176.63        4.988E-1      -4.35         4.99E-1       -4.25         0.49927       175.57         
26.1958       0.49943       176.55        4.988E-1      -4.46         4.99E-1       -4.36         0.49929       175.46         
26.7957       0.49935       176.47        4.988E-1      -4.56         4.99E-1       -4.45         0.49927       175.37         
27.3956       0.49935       176.39        4.988E-1      -4.66         4.99E-1       -4.56         0.49925       175.25         
27.9955       0.49933       176.32        4.988E-1      -4.76         4.989E-1      -4.66         0.49923       175.15         
28.5954       0.49935       176.24        4.988E-1      -4.86         4.989E-1      -4.76         0.49921       175.04         
29.1953       0.49938       176.17        4.988E-1      -4.97         4.989E-1      -4.87         0.49919       174.94         
29.7952       0.49938       176.09        4.988E-1      -5.07         4.989E-1      -4.96         0.49918       174.84         
30.3951       0.49935       176.01        4.988E-1      -5.17         4.988E-1      -5.06         0.49916       174.73         
30.9950       0.49939       175.93        4.988E-1      -5.28         4.989E-1      -5.16         0.49916       174.64         
31.5949       0.49937       175.85        4.987E-1      -5.38         4.988E-1      -5.26         0.49909       174.53         
32.1948       0.49943       175.77        4.988E-1      -5.49         4.988E-1      -5.36         0.49909       174.42         
32.7947       0.49931       175.69        4.987E-1      -5.59         4.987E-1      -5.46         0.4991        174.32         
33.3946       0.49934       175.62        4.988E-1      -5.69         4.987E-1      -5.56         0.49907       174.22         
33.9945       0.49935       175.54        4.988E-1      -5.79         4.987E-1      -5.65         0.49904       174.11         
34.5944       0.49933       175.46        4.987E-1      -5.89         4.988E-1      -5.76         0.49902       174.01         
35.1943       0.49932       175.39        4.987E-1      -6.00         4.988E-1      -5.85         0.49903       173.91         
35.7942       0.49933       175.31        4.987E-1      -6.10         4.987E-1      -5.95         0.49897       173.81         
36.3941       0.49935       175.22        4.987E-1      -6.20         4.987E-1      -6.05         0.49891       173.70         
36.9940       0.49934       175.15        4.988E-1      -6.31         4.987E-1      -6.15         0.49892       173.60         
37.5939       0.49932       175.07        4.987E-1      -6.40         4.987E-1      -6.26         0.49895       173.49         
38.1938       0.49932       174.99        4.987E-1      -6.50         4.987E-1      -6.35         0.49893       173.39         
38.7937       0.49932       174.91        4.987E-1      -6.61         4.987E-1      -6.46         0.49886       173.29         
39.3936       0.49935       174.84        4.987E-1      -6.70         4.986E-1      -6.55         0.49888       173.18         
39.9935       0.49938       174.76        4.987E-1      -6.80         4.987E-1      -6.65         0.4989        173.07         
40.5934       0.49935       174.69        4.987E-1      -6.91         4.986E-1      -6.74         0.49885       172.97         
41.1933       0.49935       174.62        4.987E-1      -7.00         4.987E-1      -6.84         0.49887       172.87         
41.7932       0.49932       174.54        4.987E-1      -7.10         4.986E-1      -6.93         0.49883       172.77         
42.3931       0.49928       174.46        4.986E-1      -7.21         4.986E-1      -7.04         0.49881       172.66         
42.9930       0.49933       174.38        4.987E-1      -7.30         4.986E-1      -7.13         0.4988        172.57         
43.5929       0.49931       174.31        4.987E-1      -7.40         4.986E-1      -7.24         0.49881       172.46         
44.1928       0.49927       174.23        4.986E-1      -7.50         4.986E-1      -7.33         0.49875       172.35         
44.7927       0.49927       174.15        4.986E-1      -7.61         4.985E-1      -7.43         0.49868       172.26         
45.3926       0.49929       174.08        4.986E-1      -7.70         4.986E-1      -7.53         0.49866       172.15         
45.9925       0.4993        173.99        4.986E-1      -7.80         4.986E-1      -7.62         0.49869       172.05         
46.5924       0.49934       173.92        4.986E-1      -7.90         4.985E-1      -7.72         0.49862       171.94         
47.1923       0.49934       173.85        4.983E-1      -7.91         4.988E-1      -7.94         0.49863       171.85         
47.7922       0.49934       173.77        4.982E-1      -7.94         4.989E-1      -8.07         0.49856       171.75         
48.3921       0.49933       173.69        4.982E-1      -8.01         4.989E-1      -8.21         0.49851       171.64         
48.9920       0.49935       173.61        4.981E-1      -8.10         4.993E-1      -8.36         0.49839       171.55         
49.5919       0.49934       173.53        4.965E-1      -8.52         4.989E-1      -8.09         0.49853       171.43         
50.1918       0.49934       173.45        4.985E-1      -8.52         4.986E-1      -8.29         0.49854       171.33         
50.7917       0.49935       173.38        4.986E-1      -8.60         4.984E-1      -8.40         0.49854       171.22         
51.3916       0.49935       173.29        4.986E-1      -8.71         4.983E-1      -8.49         0.49849       171.12         
51.9915       0.49932       173.22        4.986E-1      -8.80         4.985E-1      -8.60         0.49845       171.02         
52.5914       0.49934       173.14        4.986E-1      -8.90         4.984E-1      -8.70         0.49842       170.92         
53.1913       0.49931       173.06        4.986E-1      -8.99         4.984E-1      -8.80         0.49844       170.81         
53.7912       0.49933       172.98        4.985E-1      -9.09         4.984E-1      -8.89         0.49838       170.72         
54.3911       0.49933       172.91        4.986E-1      -9.19         4.984E-1      -8.99         0.49833       170.61         
54.9910       0.49934       172.83        4.986E-1      -9.29         4.983E-1      -9.09         0.49831       170.51         
55.5909       0.49931       172.75        4.985E-1      -9.40         4.984E-1      -9.18         0.4983        170.41         
56.1908       0.49935       172.67        4.985E-1      -9.49         4.984E-1      -9.30         0.49831       170.29         
56.7907       0.49935       172.59        4.985E-1      -9.59         4.984E-1      -9.39         0.49832       170.20         
57.3906       0.4994        172.51        4.985E-1      -9.69         4.984E-1      -9.50         0.49823       170.09         
57.9905       0.49939       172.43        4.985E-1      -9.79         4.983E-1      -9.60         0.49821       169.99         
58.5904       0.49937       172.35        4.985E-1      -9.89         4.983E-1      -9.70         0.49821       169.89         
59.1903       0.49937       172.27        4.985E-1      -9.99         4.983E-1      -9.79         0.49819       169.78         
59.7902       0.49939       172.20        4.985E-1      -10.08        4.982E-1      -9.89         0.49818       169.68         
60.3901       0.4994        172.13        4.986E-1      -10.19        4.983E-1      -9.99         0.49813       169.57         
60.9900       0.49939       172.05        4.985E-1      -10.29        4.983E-1      -10.09        0.49809       169.47         
61.5899       0.49942       171.97        4.985E-1      -10.38        4.983E-1      -10.18        0.49811       169.36         
62.1898       0.49942       171.90        4.985E-1      -10.49        4.983E-1      -10.28        0.49812       169.26         
62.7897       0.49938       171.82        4.985E-1      -10.59        4.982E-1      -10.39        0.49809       169.16         
63.3896       0.49948       171.74        4.986E-1      -10.68        4.982E-1      -10.49        0.49804       169.05         
63.9895       0.49945       171.67        4.985E-1      -10.78        4.982E-1      -10.58        0.49804       168.95         
64.5894       0.49951       171.59        4.985E-1      -10.88        4.982E-1      -10.69        0.49799       168.85         
65.1893       0.49948       171.51        4.985E-1      -10.97        4.981E-1      -10.79        0.49796       168.74         
65.7892       0.49942       171.43        4.985E-1      -11.07        4.982E-1      -10.89        0.49789       168.64         
66.3891       0.49943       171.35        4.984E-1      -11.16        4.981E-1      -11.00        0.49789       168.53         
66.9890       0.49943       171.27        4.985E-1      -11.25        4.981E-1      -11.10        0.49791       168.43         
67.5889       0.4995        171.19        4.984E-1      -11.35        4.982E-1      -11.20        0.49784       168.33         
68.1888       0.49945       171.12        4.985E-1      -11.45        4.981E-1      -11.30        0.49779       168.22         
68.7887       0.49944       171.03        4.985E-1      -11.55        4.981E-1      -11.41        0.49776       168.12         
69.3886       0.49951       170.96        4.984E-1      -11.63        4.981E-1      -11.51        0.49775       168.02         
69.9885       0.4995        170.88        4.984E-1      -11.74        4.981E-1      -11.62        0.49772       167.92         
70.5884       0.49955       170.80        4.984E-1      -11.84        4.98E-1       -11.72        0.49769       167.81         
71.1883       0.49953       170.73        4.984E-1      -11.94        4.98E-1       -11.81        0.4977        167.71         
71.7882       0.49952       170.65        4.984E-1      -12.04        4.98E-1       -11.91        0.49764       167.60         
72.3881       0.49953       170.57        4.984E-1      -12.14        4.98E-1       -12.02        0.49759       167.49         
72.9880       0.49952       170.49        4.985E-1      -12.24        4.979E-1      -12.10        0.49758       167.39         
73.5879       0.49949       170.42        4.984E-1      -12.35        4.98E-1       -12.21        0.4975        167.28         
74.1878       0.49956       170.34        4.984E-1      -12.45        4.98E-1       -12.29        0.49754       167.18         
74.7877       0.49955       170.27        4.984E-1      -12.56        4.98E-1       -12.39        0.4975        167.07         
75.3876       0.49957       170.20        4.983E-1      -12.66        4.98E-1       -12.48        0.49745       166.98         
75.9875       0.49959       170.12        4.984E-1      -12.76        4.979E-1      -12.59        0.49743       166.87         
76.5874       0.49959       170.04        4.984E-1      -12.85        4.979E-1      -12.69        0.49739       166.77         
77.1873       0.49958       169.97        4.984E-1      -12.94        4.979E-1      -12.80        0.49733       166.66         
77.7872       0.49959       169.89        4.984E-1      -13.03        4.98E-1       -12.91        0.49742       166.56         
78.3871       0.49956       169.82        4.983E-1      -13.13        4.979E-1      -13.01        0.49732       166.46         
78.9870       0.49961       169.74        4.984E-1      -13.22        4.979E-1      -13.11        0.49727       166.35         
79.5869       0.49956       169.67        4.984E-1      -13.29        4.978E-1      -13.24        0.49727       166.25         
80.1868       0.4996        169.60        4.985E-1      -13.37        4.978E-1      -13.36        0.49724       166.15         
80.7867       0.4996        169.52        4.985E-1      -13.43        4.978E-1      -13.50        0.4972        166.04         
81.3866       0.4996        169.45        4.985E-1      -13.50        4.978E-1      -13.62        0.49717       165.94         
81.9865       0.49961       169.37        4.983E-1      -13.58        4.979E-1      -13.73        0.49713       165.85         
82.5864       0.49959       169.29        4.983E-1      -13.68        4.979E-1      -13.84        0.49712       165.74         
83.1863       0.49962       169.21        4.983E-1      -13.78        4.979E-1      -13.93        0.49712       165.63         
83.7862       0.49966       169.14        4.983E-1      -13.87        4.98E-1       -14.03        0.4971        165.53         
84.3861       0.49968       169.07        4.982E-1      -13.99        4.98E-1       -14.11        0.49703       165.42         
84.9860       0.49965       168.99        4.982E-1      -14.12        4.979E-1      -14.19        0.49703       165.32         
85.5859       0.4997        168.92        4.982E-1      -14.23        4.979E-1      -14.26        0.49698       165.22         
86.1858       0.4997        168.84        4.982E-1      -14.35        4.98E-1       -14.35        0.49697       165.12         
86.7857       0.49971       168.75        4.981E-1      -14.42        4.98E-1       -14.48        0.4969        165.02         
87.3856       0.49967       168.66        4.981E-1      -14.51        4.98E-1       -14.60        0.49689       164.91         
87.9855       0.49978       168.58        4.981E-1      -14.62        4.98E-1       -14.68        0.49688       164.81         
88.5854       0.49973       168.50        4.98E-1       -14.72        4.98E-1       -14.79        0.49682       164.71         
89.1853       0.49977       168.43        4.98E-1       -14.82        4.979E-1      -14.88        0.49677       164.61         
89.7852       0.49975       168.35        4.981E-1      -14.92        4.979E-1      -14.98        0.49674       164.51         
90.3851       0.49976       168.27        4.98E-1       -15.02        4.98E-1       -15.08        0.49673       164.40         
90.9850       0.49978       168.20        4.98E-1       -15.12        4.98E-1       -15.18        0.49672       164.31         
91.5849       0.49975       168.12        4.98E-1       -15.22        4.979E-1      -15.26        0.49666       164.20         
92.1848       0.49981       168.04        4.979E-1      -15.33        4.98E-1       -15.37        0.49661       164.10         
92.7847       0.49979       167.97        4.98E-1       -15.42        4.979E-1      -15.47        0.49663       164.00         
93.3846       0.4998        167.89        4.979E-1      -15.52        4.979E-1      -15.56        0.4966        163.90         
